
Circuit: * spice from s2s

Doing analysis at TEMP = 75.000000 and TNOM = 27.000000


Initial Transient Solution
--------------------------

Node                                   Voltage
----                                   -------
n0                                           0
n16                                          0
n17                                        1.2
n18                                        1.2
n19                                          0
n20                                          0
n21                                        1.2
n22                                        1.2
n23                                          0
n24                                          0
n25                                        1.2
n26                                        1.2
n27                                          0
n28                                          0
n29                                        1.2
n1                                         1.2
n34                                        1.2
n35                                          0
n36                                          0
n37                                        1.2
n50                                        1.2
n51                                          0
n52                                          0
n53                                        1.2
n3                                         1.2
n32                                        1.2
n33                                          0
n38                                          0
n39                                        1.2
n48                                        1.2
n49                                          0
n54                                          0
n55                                        1.2
n30                                        1.2
n31                                          0
n4                                         1.2
n7                                           0
n40                                          0
n41                                        1.2
n46                                        1.2
n47                                          0
n42                                          0
n43                                        1.2
n44                                        1.2
n45                                          0
n8                                           0
n58                                          0
n59                                        1.2
n56                                          0
n57                                        1.2
n10                                        1.2
n13                                          0
n60                                          0
n61                                        1.2
n62                                          0
n63                                        1.2
n2                                         1.2
n5                                         1.2
n6                                         1.2
n9                                         1.2
n11                                        1.2
n12                                        1.2
n14                                        1.2
n15                                        1.2
nseg_node_64                                 0
nseg_node_65                                 0
nseg_node_66                                 0
nseg_node_67                                 0
nseg_node_68                                 0
nseg_node_69                                 0
nseg_node_70                                 0
nseg_node_71                                 0
nseg_node_72                                 0
nseg_node_73                                 0
nseg_node_74                                 0
nseg_node_75                                 0
nseg_node_76                                 0
nseg_node_77                                 0
nseg_node_78                                 0
nseg_node_79                                 0
nseg_node_80                                 0
nseg_node_81                                 0
nseg_node_82                                 0
nseg_node_83                                 0
nseg_node_84                                 0
nseg_node_85                                 0
nseg_node_86                                 0
nseg_node_87                                 0
nseg_node_88                                 0
nseg_node_89                                 0
nseg_node_90                                 0
gin                                        1.2
vdd                                        1.2
vdt#branch                         1.31316e-07
vdd#branch                        -0.000118039


No. of Data Rows : 225

                                                                                                                * spice from s2s
                                                                                                                Transient Analysis  Sat Feb  7 10:40:24  2009
------------------------------------------------------------------------------------------------------------------------------------------------------------------------------------------------------------------------------------------------
Index   time            v(gin)          v(n16)          v(n18)          v(n20)          v(n22)          v(n24)          v(n26)          v(n28)          v(n34)          v(n36)          v(n50)          v(n52)          v(n32)          
------------------------------------------------------------------------------------------------------------------------------------------------------------------------------------------------------------------------------------------------
0	0.000000e+00	1.200000e+00	0.000000e+00	1.200000e+00	0.000000e+00	1.200000e+00	0.000000e+00	1.200000e+00	0.000000e+00	1.200000e+00	0.000000e+00	1.200000e+00	0.000000e+00	1.200000e+00	
1	1.000000e-13	1.200000e+00	-1.196936e-03	1.128112e+00	-1.249988e-03	1.128112e+00	-1.249984e-03	1.128111e+00	-2.297429e-03	1.080856e+00	-1.283924e-03	1.126187e+00	-1.721265e-03	1.198668e+00	
2	1.262230e-13	1.200000e+00	-1.576615e-03	1.110393e+00	-1.647960e-03	1.110393e+00	-1.647954e-03	1.110391e+00	-3.015227e-03	1.052719e+00	-1.694015e-03	1.107773e+00	-2.264245e-03	1.198211e+00	
3	1.786689e-13	1.200000e+00	-2.442655e-03	1.077075e+00	-2.560464e-03	1.077075e+00	-2.560456e-03	1.077073e+00	-4.623153e-03	1.002062e+00	-2.638380e-03	1.072720e+00	-3.495794e-03	1.197055e+00	
4	2.835608e-13	1.200000e+00	-4.605965e-03	1.021653e+00	-4.883559e-03	1.021652e+00	-4.883545e-03	1.021648e+00	-8.435777e-03	9.285419e-01	-5.076770e-03	1.012090e+00	-6.539858e-03	1.193210e+00	
5	4.933445e-13	1.200000e+00	-9.387167e-03	9.437685e-01	-1.026047e-02	9.437674e-01	-1.026046e-02	9.437496e-01	-1.613981e-02	8.511944e-01	-1.087144e-02	9.194904e-01	-1.329430e-02	1.180127e+00	
6	9.129120e-13	1.200000e+00	-1.691479e-02	8.635796e-01	-1.969544e-02	8.635704e-01	-1.969560e-02	8.635082e-01	-2.651610e-02	8.151365e-01	-2.142790e-02	8.042280e-01	-2.462985e-02	1.144154e+00	
7	1.367143e-12	1.200000e+00	-2.048646e-02	8.333486e-01	-2.549767e-02	8.333192e-01	-2.549833e-02	8.332136e-01	-2.978027e-02	8.295970e-01	-2.823463e-02	7.378837e-01	-3.140302e-02	1.106202e+00	
8	2.094175e-12	1.200000e+00	-1.997283e-02	8.256903e-01	-2.671258e-02	8.256161e-01	-2.671436e-02	8.255113e-01	-2.655729e-02	8.587320e-01	-3.029722e-02	6.856986e-01	-3.321086e-02	1.063822e+00	
9	3.093462e-12	1.200000e+00	-1.544337e-02	8.436515e-01	-2.007406e-02	8.435488e-01	-2.007600e-02	8.435318e-01	-1.744485e-02	8.939032e-01	-2.491130e-02	6.638689e-01	-2.687568e-02	1.031734e+00	
10	4.768923e-12	1.200000e+00	-8.737277e-03	8.890965e-01	-4.079424e-03	8.891172e-01	-4.076057e-03	8.891788e-01	-2.588827e-03	9.395791e-01	-1.282780e-02	6.749351e-01	-9.976505e-03	1.009906e+00	
11	7.011601e-12	1.200000e+00	-3.377233e-03	9.492938e-01	1.307753e-02	9.496300e-01	1.308621e-02	9.496432e-01	1.139753e-02	9.835574e-01	-8.945180e-04	7.218528e-01	1.334612e-02	1.008864e+00	
12	9.997867e-12	1.200000e+00	5.504537e-04	1.014988e+00	2.323496e-02	1.015523e+00	2.322968e-02	1.015456e+00	1.949093e-02	1.024293e+00	7.463397e-03	7.938282e-01	3.857794e-02	1.025190e+00	
13	1.410969e-11	1.200000e+00	3.115458e-03	1.080296e+00	2.347755e-02	1.080551e+00	2.344367e-02	1.080469e+00	2.000848e-02	1.062782e+00	1.178294e-02	8.828977e-01	5.855447e-02	1.054826e+00	
14	1.955514e-11	1.200000e+00	3.880148e-03	1.133872e+00	1.746497e-02	1.133581e+00	1.742451e-02	1.133578e+00	1.580749e-02	1.098023e+00	1.252464e-02	9.751275e-01	6.317996e-02	1.090386e+00	
15	2.687633e-11	1.200000e+00	3.114838e-03	1.170805e+00	1.009266e-02	1.170282e+00	1.007239e-02	1.170331e+00	1.030881e-02	1.131002e+00	1.093932e-02	1.060960e+00	5.134235e-02	1.125803e+00	
16	3.570944e-11	1.200000e+00	1.825055e-03	1.189426e+00	4.709907e-03	1.189043e+00	4.709047e-03	1.189087e+00	5.855679e-03	1.157086e+00	8.175060e-03	1.123355e+00	3.371724e-02	1.153859e+00	
17	4.570944e-11	1.200000e+00	9.047314e-04	1.196609e+00	1.899617e-03	1.196412e+00	1.904769e-03	1.196427e+00	3.057131e-03	1.175011e+00	5.392506e-03	1.161209e+00	1.963694e-02	1.173120e+00	
18	5.570944e-11	1.200000e+00	4.841342e-04	1.198866e+00	8.199999e-04	1.198781e+00	8.240756e-04	1.198779e+00	1.667273e-03	1.185433e+00	3.399997e-03	1.180472e+00	1.120698e-02	1.184348e+00	
19	6.570944e-11	1.200000e+00	3.226434e-04	1.199508e+00	4.334184e-04	1.199472e+00	4.359362e-04	1.199465e+00	9.731989e-04	1.191488e+00	2.109817e-03	1.190057e+00	6.345788e-03	1.190848e+00	
20	7.570944e-11	1.200000e+00	2.618727e-04	1.199754e+00	2.999081e-04	1.199740e+00	3.011387e-04	1.199734e+00	6.314331e-04	1.194997e+00	1.321590e-03	1.194954e+00	3.615172e-03	1.194636e+00	
21	8.570944e-11	1.200000e+00	2.423152e-04	1.199791e+00	2.542613e-04	1.199786e+00	2.549437e-04	1.199780e+00	4.492796e-04	1.197031e+00	8.540136e-04	1.197346e+00	2.092267e-03	1.196813e+00	
22	9.570944e-11	1.200000e+00	2.344090e-04	1.199837e+00	2.398863e-04	1.199835e+00	2.401715e-04	1.199832e+00	3.589900e-04	1.198208e+00	5.847598e-04	1.198604e+00	1.255536e-03	1.198088e+00	
23	1.057094e-10	1.200000e+00	2.327570e-04	1.199822e+00	2.341254e-04	1.199821e+00	2.343065e-04	1.199819e+00	3.044101e-04	1.198889e+00	4.302826e-04	1.199191e+00	7.945084e-04	1.198811e+00	
24	1.157094e-10	1.200000e+00	2.314320e-04	1.199843e+00	2.333500e-04	1.199842e+00	2.334109e-04	1.199841e+00	2.796214e-04	1.199282e+00	3.441756e-04	1.199526e+00	5.447008e-04	1.199242e+00	
25	1.257094e-10	1.200000e+00	2.316155e-04	1.199828e+00	2.319448e-04	1.199827e+00	2.319996e-04	1.199826e+00	2.607286e-04	1.199510e+00	2.952047e-04	1.199663e+00	4.074367e-04	1.199480e+00	
26	1.357094e-10	1.200000e+00	2.311833e-04	1.199841e+00	2.326302e-04	1.199841e+00	2.326410e-04	1.199841e+00	2.546942e-04	1.199641e+00	2.686413e-04	1.199759e+00	3.341155e-04	1.199628e+00	
27	1.457094e-10	1.200000e+00	2.314369e-04	1.199830e+00	2.317489e-04	1.199830e+00	2.317687e-04	1.199829e+00	2.469349e-04	1.199718e+00	2.533002e-04	1.199785e+00	2.934539e-04	1.199704e+00	
28	1.557094e-10	1.200000e+00	2.312020e-04	1.199840e+00	2.325070e-04	1.199840e+00	2.325072e-04	1.199840e+00	2.464765e-04	1.199761e+00	2.453364e-04	1.199818e+00	2.723322e-04	1.199756e+00	
29	1.657094e-10	1.200000e+00	2.313827e-04	1.199831e+00	2.317809e-04	1.199831e+00	2.317891e-04	1.199831e+00	2.425466e-04	1.199787e+00	2.404611e-04	1.199817e+00	2.601684e-04	1.199778e+00	
30	1.757094e-10	1.200000e+00	2.312320e-04	1.199839e+00	2.324383e-04	1.199839e+00	2.324368e-04	1.199839e+00	2.436482e-04	1.199801e+00	2.381848e-04	1.199832e+00	2.543195e-04	1.199798e+00	
31	1.857094e-10	1.200000e+00	2.313548e-04	1.199832e+00	2.318405e-04	1.199832e+00	2.318442e-04	1.199832e+00	2.412044e-04	1.199810e+00	2.365464e-04	1.199827e+00	2.505113e-04	1.199804e+00	
32	1.957094e-10	1.200000e+00	2.312528e-04	1.199838e+00	2.323757e-04	1.199838e+00	2.323745e-04	1.199838e+00	2.426073e-04	1.199814e+00	2.359826e-04	1.199835e+00	2.490858e-04	1.199812e+00	
33	2.000000e-10	1.200000e+00	2.313300e-04	1.199833e+00	2.319357e-04	1.199833e+00	2.319371e-04	1.199833e+00	2.410357e-04	1.199816e+00	2.355848e-04	1.199830e+00	2.482359e-04	1.199811e+00	
34	2.010000e-10	1.190400e+00	1.232150e-04	1.199834e+00	2.320555e-04	1.199835e+00	2.320691e-04	1.199835e+00	2.415463e-04	1.199816e+00	2.356139e-04	1.199832e+00	2.482958e-04	1.199812e+00	
35	2.030000e-10	1.171200e+00	-2.381740e-04	1.199829e+00	2.320638e-04	1.199835e+00	2.321553e-04	1.199835e+00	2.417255e-04	1.199817e+00	2.355570e-04	1.199833e+00	2.481576e-04	1.199813e+00	
36	2.070000e-10	1.132800e+00	-1.052888e-03	1.199807e+00	2.315877e-04	1.199835e+00	2.320957e-04	1.199835e+00	2.415180e-04	1.199818e+00	2.354105e-04	1.199832e+00	2.478323e-04	1.199814e+00	
37	2.150000e-10	1.056000e+00	-9.508209e-04	1.199808e+00	2.317245e-04	1.199835e+00	2.321410e-04	1.199835e+00	2.415570e-04	1.199819e+00	2.352320e-04	1.199833e+00	2.474457e-04	1.199815e+00	
38	2.250000e-10	9.600000e-01	4.995521e-03	1.199954e+00	2.345885e-04	1.199835e+00	2.321015e-04	1.199835e+00	2.413795e-04	1.199820e+00	2.350783e-04	1.199833e+00	2.471158e-04	1.199816e+00	
39	2.350000e-10	8.640000e-01	2.353435e-02	1.200302e+00	2.390167e-04	1.199835e+00	2.321378e-04	1.199835e+00	2.414432e-04	1.199820e+00	2.350084e-04	1.199833e+00	2.469786e-04	1.199817e+00	
40	2.450000e-10	7.680000e-01	5.990831e-02	1.200805e+00	2.425048e-04	1.199835e+00	2.321048e-04	1.199835e+00	2.413291e-04	1.199821e+00	2.349550e-04	1.199833e+00	2.468680e-04	1.199817e+00	
41	2.550000e-10	6.720000e-01	1.177672e-01	1.201126e+00	2.393936e-04	1.199835e+00	2.321289e-04	1.199835e+00	2.414004e-04	1.199821e+00	2.349382e-04	1.199833e+00	2.468433e-04	1.199818e+00	
42	2.650000e-10	5.760000e-01	2.167390e-01	1.199379e+00	2.026282e-04	1.199834e+00	2.320937e-04	1.199835e+00	2.413171e-04	1.199821e+00	2.349169e-04	1.199833e+00	2.467979e-04	1.199818e+00	
43	2.750000e-10	4.800000e-01	3.844509e-01	1.179280e+00	-1.053164e-04	1.199829e+00	2.320294e-04	1.199835e+00	2.413819e-04	1.199821e+00	2.349157e-04	1.199833e+00	2.468034e-04	1.199818e+00	
44	2.850000e-10	3.840000e-01	6.168666e-01	1.089434e+00	-1.017686e-03	1.199812e+00	2.318025e-04	1.199835e+00	2.413169e-04	1.199821e+00	2.349053e-04	1.199833e+00	2.467788e-04	1.199818e+00	
45	2.950000e-10	2.880000e-01	8.545792e-01	8.390256e-01	1.249606e-02	1.200086e+00	2.363487e-04	1.199835e+00	2.413735e-04	1.199821e+00	2.349082e-04	1.199833e+00	2.467910e-04	1.199818e+00	
46	3.050000e-10	1.920000e-01	1.031437e+00	4.616313e-01	1.417631e-01	1.202129e+00	2.671646e-04	1.199836e+00	2.413293e-04	1.199821e+00	2.349019e-04	1.199833e+00	2.467742e-04	1.199818e+00	
47	3.129048e-10	1.161135e-01	1.113810e+00	2.203532e-01	4.081571e-01	1.188461e+00	2.950042e-05	1.199831e+00	2.413051e-04	1.199821e+00	2.349056e-04	1.199833e+00	2.467867e-04	1.199818e+00	
48	3.208192e-10	4.013560e-02	1.157278e+00	1.012236e-01	7.346222e-01	1.082753e+00	-1.419070e-03	1.199802e+00	2.408444e-04	1.199821e+00	2.349013e-04	1.199833e+00	2.467741e-04	1.199818e+00	
49	3.250000e-10	0.000000e+00	1.170120e+00	6.860110e-02	8.712666e-01	9.541836e-01	-1.402761e-03	1.199796e+00	2.407869e-04	1.199821e+00	2.349043e-04	1.199833e+00	2.467843e-04	1.199818e+00	
50	3.260000e-10	0.000000e+00	1.172499e+00	6.262085e-02	8.964970e-01	9.128023e-01	-5.000031e-04	1.199810e+00	2.409639e-04	1.199821e+00	2.349032e-04	1.199833e+00	2.467804e-04	1.199818e+00	
51	3.280000e-10	0.000000e+00	1.177032e+00	5.185125e-02	9.435794e-01	8.258322e-01	3.312282e-03	1.199874e+00	2.418556e-04	1.199821e+00	2.349027e-04	1.199833e+00	2.467790e-04	1.199818e+00	
52	3.320000e-10	0.000000e+00	1.184422e+00	3.570273e-02	1.018654e+00	6.369731e-01	2.976744e-02	1.200420e+00	2.501155e-04	1.199821e+00	2.349035e-04	1.199833e+00	2.467798e-04	1.199818e+00	
53	3.384598e-10	0.000000e+00	1.191965e+00	1.957002e-02	1.099196e+00	3.662426e-01	1.728649e-01	1.202829e+00	2.868385e-04	1.199822e+00	2.349079e-04	1.199833e+00	2.467789e-04	1.199818e+00	
54	3.457186e-10	0.000000e+00	1.196157e+00	1.009055e-02	1.149746e+00	1.788732e-01	4.681833e-01	1.183145e+00	-7.024231e-06	1.199819e+00	2.348831e-04	1.199833e+00	2.467794e-04	1.199816e+00	
55	3.537099e-10	0.000000e+00	1.198246e+00	4.879640e-03	1.176863e+00	8.238338e-02	7.934070e-01	1.040019e+00	-1.411532e-03	1.199803e+00	2.347068e-04	1.199833e+00	2.467787e-04	1.199802e+00	
56	3.614868e-10	0.000000e+00	1.199128e+00	2.465828e-03	1.189254e+00	3.821370e-02	9.932707e-01	7.341175e-01	1.688636e-02	1.199973e+00	2.364807e-04	1.199833e+00	2.467794e-04	1.199939e+00	
57	3.696657e-10	0.000000e+00	1.199530e+00	1.245837e-03	1.195110e+00	1.779241e-02	1.102189e+00	3.836835e-01	1.494623e-01	1.201185e+00	2.495286e-04	1.199833e+00	2.467805e-04	1.200979e+00	
58	3.778128e-10	0.000000e+00	1.199705e+00	6.975541e-04	1.197757e+00	8.419778e-03	1.155297e+00	1.685257e-01	4.280668e-01	1.193265e+00	1.663426e-04	1.199832e+00	2.467721e-04	1.194693e+00	
59	3.861967e-10	0.000000e+00	1.199779e+00	4.330281e-04	1.198932e+00	3.948476e-03	1.180017e+00	7.380783e-02	7.269594e-01	1.123980e+00	-5.246876e-04	1.199823e+00	2.466854e-04	1.135494e+00	
60	3.937930e-10	0.000000e+00	1.199811e+00	3.316435e-04	1.199391e+00	2.128097e-03	1.190627e+00	3.474746e-02	9.094477e-01	9.540573e-01	9.151341e-05	1.199828e+00	2.467234e-04	9.833340e-01	
61	4.020538e-10	0.000000e+00	1.199824e+00	2.730044e-04	1.199657e+00	1.008729e-03	1.195639e+00	1.656268e-02	1.037827e+00	6.952864e-01	2.256503e-02	1.200123e+00	2.494893e-04	7.391077e-01	
62	4.098782e-10	0.000000e+00	1.199831e+00	2.540894e-04	1.199728e+00	6.997360e-04	1.198030e+00	8.864470e-03	1.114420e+00	4.815939e-01	1.066798e-01	1.201174e+00	2.594392e-04	5.235345e-01	
63	4.182670e-10	0.000000e+00	1.199833e+00	2.391344e-04	1.199812e+00	3.397840e-04	1.198969e+00	4.681042e-03	1.156283e+00	3.323803e-01	2.901615e-01	1.199446e+00	2.428454e-04	3.658418e-01	
64	4.271556e-10	0.000000e+00	1.199835e+00	2.373125e-04	1.199802e+00	3.723136e-04	1.199525e+00	2.460342e-03	1.178681e+00	2.296682e-01	5.403574e-01	1.167175e+00	-5.991507e-05	2.551263e-01	
65	4.371556e-10	0.000000e+00	1.199835e+00	2.320386e-04	1.199845e+00	1.951339e-04	1.199674e+00	1.102701e-03	1.189458e+00	1.479800e-01	7.927109e-01	1.024267e+00	-4.915960e-04	1.634977e-01	
66	4.467165e-10	0.000000e+00	1.199836e+00	2.338869e-04	1.199818e+00	3.021819e-04	1.199798e+00	7.360673e-04	1.194499e+00	9.446343e-02	9.573668e-01	7.652112e-01	1.368996e-02	1.038290e-01	
67	4.559830e-10	0.000000e+00	1.199836e+00	2.312054e-04	1.199848e+00	1.811225e-04	1.199798e+00	3.500074e-04	1.196599e+00	6.083921e-02	1.058326e+00	4.845997e-01	8.979632e-02	6.672664e-02	
68	4.643946e-10	0.000000e+00	1.199836e+00	2.331797e-04	1.199823e+00	2.841133e-04	1.199832e+00	4.235532e-04	1.197948e+00	4.056736e-02	1.115260e+00	2.921340e-01	2.537181e-01	4.430849e-02	
69	4.731366e-10	0.000000e+00	1.199836e+00	2.313007e-04	1.199846e+00	1.876866e-04	1.199824e+00	2.104406e-04	1.198543e+00	2.633396e-02	1.150202e+00	1.691648e-01	4.849318e-01	2.865594e-02	
70	4.825668e-10	0.000000e+00	1.199836e+00	2.328824e-04	1.199825e+00	2.734487e-04	1.199836e+00	3.395274e-04	1.199120e+00	1.648326e-02	1.172479e+00	9.212944e-02	7.125979e-01	1.788465e-02	
71	4.899803e-10	0.000000e+00	1.199836e+00	2.314824e-04	1.199843e+00	1.963928e-04	1.199832e+00	1.835293e-04	1.199279e+00	1.130159e-02	1.182372e+00	5.696217e-02	8.412349e-01	1.224342e-02	
72	4.975465e-10	0.000000e+00	1.199836e+00	2.326640e-04	1.199828e+00	2.635865e-04	1.199835e+00	3.075438e-04	1.199497e+00	7.809362e-03	1.189064e+00	3.533086e-02	9.441584e-01	8.442611e-03	
73	5.050409e-10	0.000000e+00	1.199836e+00	2.316533e-04	1.199841e+00	2.048874e-04	1.199835e+00	1.858191e-04	1.199571e+00	5.300495e-03	1.192981e+00	2.242960e-02	1.027142e+00	5.724582e-03	
74	5.121763e-10	0.000000e+00	1.199836e+00	2.325063e-04	1.199830e+00	2.556151e-04	1.199834e+00	2.865972e-04	1.199669e+00	3.802273e-03	1.195527e+00	1.476786e-02	1.082376e+00	4.093757e-03	
75	5.197753e-10	0.000000e+00	1.199836e+00	2.317833e-04	1.199839e+00	2.118007e-04	1.199836e+00	1.938107e-04	1.199708e+00	2.566222e-03	1.197089e+00	9.631432e-03	1.123041e+00	2.763998e-03	
