
Circuit: * spice from s2s

Doing analysis at TEMP = 75.000000 and TNOM = 27.000000


Initial Transient Solution
--------------------------

Node                                   Voltage
----                                   -------
n0                                         1.2
n16                                        1.2
n17                                          0
n18                                          0
n19                                        1.2
n20                                        1.2
n21                                          0
n22                                          0
n23                                        1.2
n24                                        1.2
n25                                          0
n26                                          0
n27                                        1.2
n28                                        1.2
n29                                          0
n1                                           0
n34                                          0
n35                                        1.2
n36                                        1.2
n37                                          0
n50                                          0
n51                                        1.2
n52                                        1.2
n53                                          0
n3                                           0
n32                                          0
n33                                        1.2
n38                                        1.2
n39                                          0
n48                                          0
n49                                        1.2
n54                                        1.2
n55                                          0
n30                                          0
n31                                        1.2
n4                                           0
n7                                         1.2
n40                                        1.2
n41                                          0
n46                                          0
n47                                        1.2
n42                                        1.2
n43                                          0
n44                                          0
n45                                        1.2
n8                                         1.2
n58                                        1.2
n59                                          0
n56                                        1.2
n57                                          0
n10                                          0
n13                                        1.2
n60                                        1.2
n61                                          0
n62                                        1.2
n63                                          0
n2                                           0
n5                                           0
n6                                           0
n9                                           0
n11                                          0
n12                                          0
n14                                          0
n15                                          0
nseg_node_64                               1.2
nseg_node_65                               1.2
nseg_node_66                               1.2
nseg_node_67                               1.2
nseg_node_68                               1.2
nseg_node_69                               1.2
nseg_node_70                               1.2
nseg_node_71                               1.2
nseg_node_72                               1.2
nseg_node_73                               1.2
nseg_node_74                               1.2
nseg_node_75                               1.2
nseg_node_76                               1.2
nseg_node_77                               1.2
nseg_node_78                               1.2
nseg_node_79                               1.2
nseg_node_80                               1.2
nseg_node_81                               1.2
nseg_node_82                               1.2
nseg_node_83                               1.2
nseg_node_84                               1.2
nseg_node_85                               1.2
nseg_node_86                               1.2
nseg_node_87                               1.2
nseg_node_88                               1.2
nseg_node_89                               1.2
nseg_node_90                               1.2
gin                                          0
vdd                                        1.2
vdt#branch                                   0
vdd#branch                        -0.000175141


No. of Data Rows : 228

                                                                                                                * spice from s2s
                                                                                                                Transient Analysis  Sat Feb  7 10:40:24  2009
------------------------------------------------------------------------------------------------------------------------------------------------------------------------------------------------------------------------------------------------
Index   time            v(gin)          v(n16)          v(n18)          v(n20)          v(n22)          v(n24)          v(n26)          v(n28)          v(n34)          v(n36)          v(n50)          v(n52)          v(n32)          
------------------------------------------------------------------------------------------------------------------------------------------------------------------------------------------------------------------------------------------------
0	0.000000e+00	0.000000e+00	1.200000e+00	0.000000e+00	1.200000e+00	0.000000e+00	1.200000e+00	0.000000e+00	1.200000e+00	0.000000e+00	1.200000e+00	0.000000e+00	1.200000e+00	0.000000e+00	
1	1.000000e-13	0.000000e+00	1.201331e+00	7.208820e-02	1.201380e+00	7.208823e-02	1.201380e+00	7.208911e-02	1.202582e+00	1.194660e-01	1.201417e+00	7.400154e-02	1.201931e+00	1.337455e-03	
2	1.168182e-13	0.000000e+00	1.201588e+00	8.374195e-02	1.201646e+00	8.374199e-02	1.201646e+00	8.374304e-02	1.203074e+00	1.382446e-01	1.201691e+00	8.605742e-02	1.202302e+00	1.605297e-03	
3	1.504547e-13	0.000000e+00	1.202156e+00	1.061485e-01	1.202237e+00	1.061485e-01	1.202237e+00	1.061500e-01	1.204154e+00	1.733446e-01	1.202300e+00	1.094201e-01	1.203120e+00	2.234791e-03	
4	2.177275e-13	0.000000e+00	1.203552e+00	1.459934e-01	1.203703e+00	1.459935e-01	1.203703e+00	1.459963e-01	1.206706e+00	2.305873e-01	1.203824e+00	1.519900e-01	1.205107e+00	4.112784e-03	
5	3.522733e-13	0.000000e+00	1.206859e+00	2.095069e-01	1.207254e+00	2.095073e-01	1.207254e+00	2.095155e-01	1.212318e+00	3.071521e-01	1.207587e+00	2.233743e-01	1.209753e+00	1.042337e-02	
6	6.213647e-13	0.000000e+00	1.213365e+00	2.921201e-01	1.214625e+00	2.921226e-01	1.214625e+00	2.921533e-01	1.221987e+00	3.748326e-01	1.215658e+00	3.269461e-01	1.218907e+00	3.055821e-02	
7	9.221938e-13	0.000000e+00	1.218587e+00	3.406173e-01	1.221176e+00	3.406265e-01	1.221176e+00	3.406924e-01	1.228122e+00	3.876905e-01	1.223146e+00	4.014743e-01	1.226550e+00	5.832492e-02	
8	1.348109e-12	0.000000e+00	1.221636e+00	3.699508e-01	1.226010e+00	3.699782e-01	1.226011e+00	3.700839e-01	1.229723e+00	3.755782e-01	1.229072e+00	4.648208e-01	1.231837e+00	9.487227e-02	
9	1.880760e-12	0.000000e+00	1.220791e+00	3.756483e-01	1.226347e+00	3.757052e-01	1.226348e+00	3.758193e-01	1.225918e+00	3.509571e-01	1.230274e+00	5.051319e-01	1.232071e+00	1.292009e-01	
10	2.684430e-12	0.000000e+00	1.216110e+00	3.606514e-01	1.220860e+00	3.607333e-01	1.220862e+00	3.607909e-01	1.217461e+00	3.168635e-01	1.225769e+00	5.277840e-01	1.226197e+00	1.603343e-01	
11	3.496810e-12	0.000000e+00	1.211253e+00	3.362934e-01	1.213128e+00	3.363515e-01	1.213128e+00	3.363341e-01	1.209768e+00	2.883351e-01	1.219106e+00	5.284059e-01	1.217710e+00	1.756238e-01	
12	4.603078e-12	0.000000e+00	1.206579e+00	3.015204e-01	1.203616e+00	3.014791e-01	1.203612e+00	3.014128e-01	1.201847e+00	2.568630e-01	1.211175e+00	5.142288e-01	1.205905e+00	1.835471e-01	
13	6.076190e-12	0.000000e+00	1.202885e+00	2.580135e-01	1.194172e+00	2.578123e-01	1.194164e+00	2.577576e-01	1.194553e+00	2.241650e-01	1.203651e+00	4.833999e-01	1.191163e+00	1.831726e-01	
14	8.383832e-12	0.000000e+00	1.199777e+00	2.000672e-01	1.185730e+00	1.997271e-01	1.185726e+00	1.997455e-01	1.188077e+00	1.863716e-01	1.196766e+00	4.270735e-01	1.171456e+00	1.727565e-01	
15	1.138079e-11	0.000000e+00	1.197791e+00	1.425156e-01	1.181993e+00	1.422331e-01	1.181999e+00	1.423139e-01	1.185001e+00	1.518396e-01	1.192489e+00	3.551845e-01	1.153417e+00	1.532852e-01	
16	1.568482e-11	0.000000e+00	1.196765e+00	8.667080e-02	1.182768e+00	8.663061e-02	1.182784e+00	8.669524e-02	1.185186e+00	1.171867e-01	1.190166e+00	2.672957e-01	1.142378e+00	1.246170e-01	
17	2.096257e-11	0.000000e+00	1.196899e+00	4.662997e-02	1.186667e+00	4.679581e-02	1.186684e+00	4.679617e-02	1.187801e+00	8.737635e-02	1.189890e+00	1.856403e-01	1.144720e+00	9.452830e-02	
18	2.844280e-11	0.000000e+00	1.197810e+00	1.884330e-02	1.192036e+00	1.908131e-02	1.192046e+00	1.903446e-02	1.191793e+00	5.816075e-02	1.191226e+00	1.090594e-01	1.157660e+00	6.317583e-02	
19	3.688375e-11	0.000000e+00	1.198758e+00	6.765069e-03	1.196031e+00	6.950510e-03	1.196033e+00	6.908965e-03	1.195147e+00	3.681252e-02	1.193352e+00	5.935999e-02	1.171659e+00	3.999002e-02	
20	4.688375e-11	0.000000e+00	1.199396e+00	2.057936e-03	1.198379e+00	2.159802e-03	1.198377e+00	2.144708e-03	1.197484e+00	2.137822e-02	1.195574e+00	2.856488e-02	1.183111e+00	2.322277e-02	
21	5.688375e-11	0.000000e+00	1.199673e+00	7.523751e-04	1.199314e+00	7.993975e-04	1.199312e+00	8.014520e-04	1.198666e+00	1.245541e-02	1.197185e+00	1.382626e-02	1.190171e+00	1.352382e-02	
22	6.688375e-11	0.000000e+00	1.199778e+00	3.852613e-04	1.199655e+00	4.048735e-04	1.199653e+00	4.120022e-04	1.199243e+00	7.302057e-03	1.198240e+00	6.752228e-03	1.194329e+00	7.919839e-03	
23	7.688375e-11	0.000000e+00	1.199816e+00	2.768746e-04	1.199775e+00	2.845400e-04	1.199774e+00	2.912775e-04	1.199527e+00	4.319999e-03	1.198895e+00	3.388120e-03	1.196728e+00	4.678888e-03	
24	8.688375e-11	0.000000e+00	1.199829e+00	2.463624e-04	1.199815e+00	2.492558e-04	1.199814e+00	2.540309e-04	1.199669e+00	2.601357e-03	1.199289e+00	1.748955e-03	1.198092e+00	2.809530e-03	
25	9.688375e-11	0.000000e+00	1.199834e+00	2.359615e-04	1.199829e+00	2.369903e-04	1.199828e+00	2.400675e-04	1.199742e+00	1.605433e-03	1.199520e+00	9.820487e-04	1.198859e+00	1.728097e-03	
26	1.068838e-10	0.000000e+00	1.199835e+00	2.337131e-04	1.199833e+00	2.341079e-04	1.199833e+00	2.359298e-04	1.199781e+00	1.033978e-03	1.199655e+00	5.892711e-04	1.199290e+00	1.106062e-03	
27	1.168838e-10	0.000000e+00	1.199836e+00	2.323052e-04	1.199834e+00	2.324192e-04	1.199834e+00	2.335051e-04	1.199802e+00	7.011559e-04	1.199732e+00	4.187909e-04	1.199528e+00	7.453152e-04	
28	1.268838e-10	0.000000e+00	1.199836e+00	2.324045e-04	1.199835e+00	2.324730e-04	1.199835e+00	2.330784e-04	1.199813e+00	5.120550e-04	1.199776e+00	3.166578e-04	1.199661e+00	5.389902e-04	
29	1.368838e-10	0.000000e+00	1.199836e+00	2.320338e-04	1.199835e+00	2.320352e-04	1.199835e+00	2.323974e-04	1.199820e+00	4.003344e-04	1.199801e+00	2.837991e-04	1.199734e+00	4.183889e-04	
30	1.468838e-10	0.000000e+00	1.199836e+00	2.322087e-04	1.199835e+00	2.322352e-04	1.199835e+00	2.324285e-04	1.199823e+00	3.383749e-04	1.199815e+00	2.517779e-04	1.199775e+00	3.503458e-04	
31	1.568838e-10	0.000000e+00	1.199836e+00	2.320601e-04	1.199835e+00	2.320503e-04	1.199835e+00	2.321722e-04	1.199826e+00	3.003865e-04	1.199823e+00	2.502179e-04	1.199797e+00	3.097367e-04	
32	1.668838e-10	0.000000e+00	1.199836e+00	2.321460e-04	1.199835e+00	2.321652e-04	1.199835e+00	2.322252e-04	1.199826e+00	2.805737e-04	1.199827e+00	2.364335e-04	1.199810e+00	2.876004e-04	
33	1.768838e-10	0.000000e+00	1.199836e+00	2.320975e-04	1.199835e+00	2.320886e-04	1.199835e+00	2.321313e-04	1.199827e+00	2.672369e-04	1.199830e+00	2.412512e-04	1.199816e+00	2.736671e-04	
34	1.868838e-10	0.000000e+00	1.199836e+00	2.321115e-04	1.199835e+00	2.321276e-04	1.199835e+00	2.321450e-04	1.199827e+00	2.613089e-04	1.199831e+00	2.330871e-04	1.199820e+00	2.667172e-04	
35	1.968838e-10	0.000000e+00	1.199836e+00	2.321242e-04	1.199835e+00	2.321175e-04	1.199835e+00	2.321335e-04	1.199828e+00	2.562807e-04	1.199832e+00	2.384769e-04	1.199822e+00	2.617173e-04	
36	2.000000e-10	0.000000e+00	1.199836e+00	2.320731e-04	1.199835e+00	2.320849e-04	1.199835e+00	2.320931e-04	1.199828e+00	2.562579e-04	1.199832e+00	2.334384e-04	1.199822e+00	2.613101e-04	
37	2.010000e-10	9.600000e-03	1.199942e+00	2.332910e-04	1.199835e+00	2.321267e-04	1.199835e+00	2.321359e-04	1.199828e+00	2.557347e-04	1.199832e+00	2.349834e-04	1.199822e+00	2.608697e-04	
38	2.030000e-10	2.880000e-02	1.200322e+00	2.390202e-04	1.199835e+00	2.321150e-04	1.199835e+00	2.321231e-04	1.199828e+00	2.551747e-04	1.199832e+00	2.356024e-04	1.199823e+00	2.603155e-04	
39	2.070000e-10	6.720000e-02	1.201381e+00	2.610076e-04	1.199836e+00	2.321277e-04	1.199835e+00	2.321248e-04	1.199828e+00	2.544842e-04	1.199833e+00	2.350529e-04	1.199823e+00	2.595276e-04	
40	2.150000e-10	1.440000e-01	1.202197e+00	2.672944e-04	1.199836e+00	2.321322e-04	1.199835e+00	2.321230e-04	1.199828e+00	2.532903e-04	1.199833e+00	2.352419e-04	1.199823e+00	2.582614e-04	
41	2.250000e-10	2.400000e-01	1.198149e+00	1.687750e-04	1.199833e+00	2.320760e-04	1.199835e+00	2.321213e-04	1.199828e+00	2.524765e-04	1.199833e+00	2.348229e-04	1.199824e+00	2.573492e-04	
42	2.350000e-10	3.360000e-01	1.182109e+00	-6.491712e-05	1.199829e+00	2.320218e-04	1.199835e+00	2.321214e-04	1.199828e+00	2.519200e-04	1.199833e+00	2.350370e-04	1.199824e+00	2.567695e-04	
43	2.450000e-10	4.320000e-01	1.144977e+00	-4.221939e-04	1.199824e+00	2.320184e-04	1.199835e+00	2.321189e-04	1.199828e+00	2.516792e-04	1.199833e+00	2.347625e-04	1.199824e+00	2.564851e-04	
44	2.550000e-10	5.280000e-01	1.079750e+00	-4.091036e-04	1.199830e+00	2.321974e-04	1.199835e+00	2.321211e-04	1.199828e+00	2.514676e-04	1.199833e+00	2.349635e-04	1.199824e+00	2.562757e-04	
45	2.650000e-10	6.240000e-01	9.729925e-01	3.344478e-03	1.199910e+00	2.334838e-04	1.199835e+00	2.321181e-04	1.199828e+00	2.514121e-04	1.199833e+00	2.347609e-04	1.199824e+00	2.561969e-04	
46	2.750000e-10	7.200000e-01	8.024136e-01	2.798440e-02	1.200384e+00	2.403709e-04	1.199835e+00	2.321233e-04	1.199828e+00	2.513197e-04	1.199833e+00	2.349294e-04	1.199824e+00	2.561131e-04	
47	2.850000e-10	8.160000e-01	5.615390e-01	1.232960e-01	1.201785e+00	2.582267e-04	1.199836e+00	2.321230e-04	1.199828e+00	2.513215e-04	1.199833e+00	2.347724e-04	1.199824e+00	2.561000e-04	
48	2.950000e-10	9.120000e-01	3.118106e-01	3.829663e-01	1.186920e+00	6.484027e-06	1.199831e+00	2.320432e-04	1.199828e+00	2.512724e-04	1.199833e+00	2.349090e-04	1.199824e+00	2.560602e-04	
49	3.050000e-10	1.008000e+00	1.379096e-01	7.466493e-01	1.050201e+00	-1.279660e-03	1.199806e+00	2.316747e-04	1.199828e+00	2.512896e-04	1.199833e+00	2.347852e-04	1.199824e+00	2.560668e-04	
50	3.150000e-10	1.104000e+00	5.523059e-02	1.005998e+00	6.876047e-01	3.411377e-02	1.200506e+00	2.430110e-04	1.199828e+00	2.512598e-04	1.199833e+00	2.348948e-04	1.199824e+00	2.560448e-04	
51	3.235972e-10	1.186533e+00	2.501241e-02	1.111757e+00	3.374616e-01	2.199183e-01	1.202085e+00	2.655128e-04	1.199829e+00	2.512831e-04	1.199833e+00	2.347972e-04	1.199824e+00	2.560599e-04	
52	3.250000e-10	1.200000e+00	2.221122e-02	1.122618e+00	2.943763e-01	2.735275e-01	1.202106e+00	2.667773e-04	1.199829e+00	2.512674e-04	1.199833e+00	2.348623e-04	1.199824e+00	2.560492e-04	
53	3.258734e-10	1.200000e+00	2.075194e-02	1.128288e+00	2.716468e-01	3.105336e-01	1.201333e+00	2.564999e-04	1.199829e+00	2.512711e-04	1.199833e+00	2.348473e-04	1.199824e+00	2.560520e-04	
54	3.276203e-10	1.200000e+00	1.776318e-02	1.138782e+00	2.297782e-01	3.866581e-01	1.198018e+00	2.056593e-04	1.199828e+00	2.512703e-04	1.199833e+00	2.348403e-04	1.199824e+00	2.560515e-04	
55	3.311140e-10	1.200000e+00	1.260156e-02	1.155576e+00	1.648080e-01	5.441899e-01	1.175251e+00	-2.074013e-04	1.199822e+00	2.512247e-04	1.199833e+00	2.348443e-04	1.199824e+00	2.560175e-04	
56	3.381015e-10	1.200000e+00	6.259710e-03	1.177165e+00	8.326247e-02	8.154036e-01	1.024299e+00	-1.879689e-03	1.199788e+00	2.509079e-04	1.199833e+00	2.348410e-04	1.199824e+00	2.557477e-04	
57	3.462961e-10	1.200000e+00	2.812041e-03	1.189685e+00	3.671647e-02	1.011986e+00	6.868419e-01	2.741964e-02	1.200296e+00	2.549027e-04	1.199833e+00	2.348442e-04	1.199824e+00	2.589690e-04	
58	3.537141e-10	1.200000e+00	1.452866e-03	1.194938e+00	1.824592e-02	1.104119e+00	3.710485e-01	1.777923e-01	1.202301e+00	2.725663e-04	1.199833e+00	2.348444e-04	1.199824e+00	2.741497e-04	
59	3.618278e-10	1.200000e+00	7.621712e-04	1.197647e+00	8.565285e-03	1.156161e+00	1.644505e-01	5.028325e-01	1.177893e+00	7.941113e-05	1.199831e+00	2.348220e-04	1.199824e+00	1.189604e-04	
60	3.701888e-10	1.200000e+00	4.631538e-04	1.198885e+00	4.058298e-03	1.180360e+00	7.314604e-02	8.310336e-01	1.026630e+00	-6.959943e-04	1.199820e+00	2.347024e-04	1.199824e+00	-5.629470e-04	
61	3.780093e-10	1.200000e+00	3.320384e-04	1.199390e+00	2.030844e-03	1.191015e+00	3.358425e-02	1.015769e+00	7.423045e-01	9.322384e-03	1.199943e+00	2.359964e-04	1.199824e+00	7.496198e-03	
62	3.862534e-10	1.200000e+00	2.796875e-04	1.199640e+00	1.069615e-03	1.195786e+00	1.584641e-02	1.114247e+00	4.345197e-01	8.946796e-02	1.200959e+00	2.468658e-04	1.199824e+00	7.572640e-02	
63	3.945608e-10	1.200000e+00	2.481478e-04	1.199746e+00	5.934646e-04	1.198179e+00	7.264303e-03	1.161533e+00	2.349749e-01	2.914745e-01	1.199674e+00	2.330202e-04	1.199824e+00	2.576764e-01	
64	4.030677e-10	1.200000e+00	2.422506e-04	1.199799e+00	3.993575e-04	1.199037e+00	3.428770e-03	1.182455e+00	1.222136e-01	5.469858e-01	1.168446e+00	-1.021915e-04	1.199821e+00	5.023884e-01	
65	4.120637e-10	1.200000e+00	2.323614e-04	1.199818e+00	2.944663e-04	1.199563e+00	1.603530e-03	1.192261e+00	5.668961e-02	7.557992e-01	1.048268e+00	-8.098335e-04	1.199811e+00	7.167394e-01	
66	4.216518e-10	1.200000e+00	2.347058e-04	1.199831e+00	2.602642e-04	1.199692e+00	7.100839e-04	1.196548e+00	2.699831e-02	8.964532e-01	8.120567e-01	1.085452e-02	1.199943e+00	8.662376e-01	
67	4.294543e-10	1.200000e+00	2.300261e-04	1.199831e+00	2.425722e-04	1.199794e+00	5.623117e-04	1.198280e+00	1.506481e-02	9.778350e-01	5.805496e-01	5.724962e-02	1.200489e+00	9.548794e-01	
68	4.373085e-10	1.200000e+00	2.332272e-04	1.199835e+00	2.384042e-04	1.199801e+00	2.806656e-04	1.198989e+00	9.553364e-03	1.043135e+00	3.773489e-01	1.854770e-01	1.201414e+00	1.028671e+00	
69	4.451601e-10	1.200000e+00	2.299800e-04	1.199834e+00	2.345037e-04	1.199826e+00	3.718744e-04	1.199453e+00	6.164502e-03	1.091764e+00	2.359231e-01	4.001560e-01	1.193348e+00	1.082253e+00	
70	4.538811e-10	1.200000e+00	2.326384e-04	1.199836e+00	2.331498e-04	1.199829e+00	1.838769e-04	1.199616e+00	4.033748e-03	1.129218e+00	1.375311e-01	6.582324e-01	1.137760e+00	1.123440e+00	
71	4.605205e-10	1.200000e+00	2.302334e-04	1.199834e+00	2.330008e-04	1.199831e+00	3.174552e-04	1.199723e+00	3.002591e-03	1.149035e+00	9.031608e-02	8.185315e-01	1.033036e+00	1.144922e+00	
72	4.668903e-10	1.200000e+00	2.322383e-04	1.199836e+00	2.320379e-04	1.199836e+00	1.778290e-04	1.199751e+00	2.188525e-03	1.163011e+00	6.034123e-02	9.312582e-01	8.771421e-01	1.160127e+00	
73	4.726745e-10	1.200000e+00	2.305440e-04	1.199835e+00	2.327392e-04	1.199831e+00	2.918356e-04	1.199782e+00	1.799339e-03	1.172313e+00	4.207159e-02	1.007007e+00	7.106943e-01	1.170207e+00	
74	4.790536e-10	1.200000e+00	2.319461e-04	1.199836e+00	2.317999e-04	1.199837e+00	1.879992e-04	1.199798e+00	1.285648e-03	1.180080e+00	2.825606e-02	1.067925e+00	5.358231e-01	1.178563e+00	
75	4.877549e-10	1.200000e+00	2.307361e-04	1.199835e+00	2.325609e-04	1.199832e+00	2.757502e-04	1.199812e+00	1.006610e-03	1.187199e+00	1.653647e-02	1.123112e+00	3.596204e-01	1.186268e+00	
