
Circuit: * spice from s2s

Doing analysis at TEMP = 75.000000 and TNOM = 27.000000


Initial Transient Solution
--------------------------

Node                                   Voltage
----                                   -------
n0                                           1
n16                                          1
n17                                          0
n18                                          0
n19                                          1
n20                                          1
n21                                          0
n22                                          0
n23                                          1
n24                                          1
n25                                          0
n26                                          0
n27                                          1
n28                                          1
n29                                          0
n1                                           0
n34                                          0
n35                                          1
n36                                          1
n37                                          0
n50                                          0
n51                                          1
n52                                          1
n53                                          0
n3                                           0
n32                                          0
n33                                          1
n38                                          1
n39                                          0
n48                                          0
n49                                          1
n54                                          1
n55                                          0
n30                                          0
n31                                          1
n4                                           0
n7                                           1
n40                                          1
n41                                          0
n46                                          0
n47                                          1
n42                                          1
n43                                          0
n44                                          0
n45                                          1
n8                                           1
n58                                          1
n59                                          0
n56                                          1
n57                                          0
n10                                          0
n13                                          1
n60                                          1
n61                                          0
n62                                          1
n63                                          0
n2                                           0
n5                                           0
n6                                           0
n9                                           0
n11                                          0
n12                                          0
n14                                          0
n15                                          0
nseg_node_64                                 1
nseg_node_65                                 1
nseg_node_66                                 1
nseg_node_67                                 1
nseg_node_68                                 1
nseg_node_69                                 1
nseg_node_70                                 1
nseg_node_71                                 1
nseg_node_72                                 1
nseg_node_73                                 1
nseg_node_74                                 1
nseg_node_75                                 1
nseg_node_76                                 1
nseg_node_77                                 1
nseg_node_78                                 1
nseg_node_79                                 1
nseg_node_80                                 1
nseg_node_81                                 1
nseg_node_82                                 1
nseg_node_83                                 1
nseg_node_84                                 1
nseg_node_85                                 1
nseg_node_86                                 1
nseg_node_87                                 1
nseg_node_88                                 1
nseg_node_89                                 1
nseg_node_90                                 1
gin                                          0
vdd                                          1
vdt#branch                                   0
vdd#branch                        -6.46708e-05


No. of Data Rows : 224

                                                                                                                * spice from s2s
                                                                                                                Transient Analysis  Sat Feb  7 10:40:23  2009
------------------------------------------------------------------------------------------------------------------------------------------------------------------------------------------------------------------------------------------------
Index   time            v(gin)          v(n16)          v(n18)          v(n20)          v(n22)          v(n24)          v(n26)          v(n28)          v(n34)          v(n36)          v(n50)          v(n52)          v(n32)          
------------------------------------------------------------------------------------------------------------------------------------------------------------------------------------------------------------------------------------------------
0	0.000000e+00	0.000000e+00	1.000000e+00	0.000000e+00	1.000000e+00	0.000000e+00	1.000000e+00	0.000000e+00	1.000000e+00	0.000000e+00	1.000000e+00	0.000000e+00	1.000000e+00	0.000000e+00	
1	1.000000e-13	0.000000e+00	1.001113e+00	6.008187e-02	1.001154e+00	6.008189e-02	1.001154e+00	6.008263e-02	1.002167e+00	9.955573e-02	1.001185e+00	6.167329e-02	1.001620e+00	1.114513e-03	
2	1.189803e-13	0.000000e+00	1.001358e+00	7.098959e-02	1.001408e+00	7.098962e-02	1.001408e+00	7.099053e-02	1.002638e+00	1.170692e-01	1.001447e+00	7.296761e-02	1.001975e+00	1.372129e-03	
3	1.569409e-13	0.000000e+00	1.001905e+00	9.185988e-02	1.001978e+00	9.185992e-02	1.001978e+00	9.186127e-02	1.003678e+00	1.495314e-01	1.002034e+00	9.476973e-02	1.002765e+00	1.988533e-03	
4	2.328621e-13	0.000000e+00	1.003257e+00	1.284434e-01	1.003401e+00	1.284435e-01	1.003401e+00	1.284462e-01	1.006138e+00	2.011372e-01	1.003516e+00	1.340531e-01	1.004693e+00	3.886135e-03	
5	3.847044e-13	0.000000e+00	1.006410e+00	1.852251e-01	1.006810e+00	1.852256e-01	1.006810e+00	1.852343e-01	1.011434e+00	2.667690e-01	1.007144e+00	1.986290e-01	1.009142e+00	1.034051e-02	
6	6.878812e-13	0.000000e+00	1.012298e+00	2.555132e-01	1.013603e+00	2.555163e-01	1.013603e+00	2.555490e-01	1.019986e+00	3.185811e-01	1.014643e+00	2.891875e-01	1.017518e+00	3.034762e-02	
7	1.004144e-12	0.000000e+00	1.016358e+00	2.918430e-01	1.018945e+00	2.918531e-01	1.018946e+00	2.919195e-01	1.024502e+00	3.236724e-01	1.020832e+00	3.483460e-01	1.023660e+00	5.489622e-02	
8	1.477746e-12	0.000000e+00	1.018377e+00	3.137039e-01	1.022860e+00	3.137335e-01	1.022861e+00	3.138357e-01	1.025177e+00	3.104900e-01	1.025683e+00	4.007615e-01	1.027788e+00	8.722890e-02	
9	2.058013e-12	0.000000e+00	1.016960e+00	3.155109e-01	1.023027e+00	3.155699e-01	1.023029e+00	3.156694e-01	1.021790e+00	2.885183e-01	1.026341e+00	4.318664e-01	1.027573e+00	1.154362e-01	
10	2.873534e-12	0.000000e+00	1.012865e+00	3.014324e-01	1.019494e+00	3.015154e-01	1.019496e+00	3.015517e-01	1.016077e+00	2.607743e-01	1.022878e+00	4.466187e-01	1.023050e+00	1.385816e-01	
11	3.732171e-12	0.000000e+00	1.008885e+00	2.800952e-01	1.014619e+00	2.801618e-01	1.014620e+00	2.801192e-01	1.011230e+00	2.365572e-01	1.017959e+00	4.450845e-01	1.016765e+00	1.502771e-01	
12	5.059333e-12	0.000000e+00	1.004780e+00	2.460417e-01	1.008007e+00	2.460186e-01	1.008004e+00	2.459301e-01	1.005953e+00	2.069243e-01	1.011603e+00	4.289089e-01	1.007294e+00	1.561193e-01	
13	6.785966e-12	0.000000e+00	1.001812e+00	2.054488e-01	1.001716e+00	2.052846e-01	1.001708e+00	2.052218e-01	1.001405e+00	1.780532e-01	1.006070e+00	3.971922e-01	9.963099e-01	1.534114e-01	
14	9.545318e-12	0.000000e+00	9.993308e-01	1.523963e-01	9.955044e-01	1.521096e-01	9.954954e-01	1.521192e-01	9.968496e-01	1.450168e-01	1.001040e+00	3.411775e-01	9.824671e-01	1.406239e-01	
15	1.298430e-11	0.000000e+00	9.978765e-01	1.040880e-01	9.918807e-01	1.038203e-01	9.918759e-01	1.038879e-01	9.939349e-01	1.165027e-01	9.977747e-01	2.755568e-01	9.719194e-01	1.208341e-01	
16	1.796468e-11	0.000000e+00	9.972796e-01	5.912477e-02	9.909574e-01	5.899199e-02	9.909600e-01	5.904501e-02	9.927507e-01	8.758766e-02	9.954485e-01	1.981682e-01	9.672787e-01	9.409900e-02	
17	2.456817e-11	0.000000e+00	9.976654e-01	2.736880e-02	9.927917e-01	2.737887e-02	9.927984e-01	2.737882e-02	9.935887e-01	6.116235e-02	9.945372e-01	1.260489e-01	9.707359e-01	6.628973e-02	
18	3.301724e-11	0.000000e+00	9.985363e-01	9.914669e-03	9.957423e-01	9.990128e-03	9.957474e-01	9.955156e-03	9.955520e-01	3.879188e-02	9.949837e-01	6.967766e-02	9.785066e-01	4.206902e-02	
19	4.301724e-11	0.000000e+00	9.992832e-01	2.914556e-03	9.980613e-01	2.981949e-03	9.980631e-01	2.956241e-03	9.974463e-01	2.258863e-02	9.962113e-01	3.405551e-02	9.862107e-01	2.451050e-02	
20	5.301724e-11	0.000000e+00	9.996554e-01	9.239423e-04	9.991723e-01	9.637562e-04	9.991724e-01	9.548415e-04	9.985936e-01	1.318421e-02	9.974013e-01	1.663981e-02	9.915209e-01	1.429947e-02	
21	6.301724e-11	0.000000e+00	9.998125e-01	3.377995e-04	9.996297e-01	3.573781e-04	9.996292e-01	3.598115e-04	9.992128e-01	7.709411e-03	9.983007e-01	8.147214e-03	9.948967e-01	8.362988e-03	
22	7.301724e-11	0.000000e+00	9.998739e-01	1.686711e-04	9.998076e-01	1.774014e-04	9.998071e-01	1.817885e-04	9.995387e-01	4.527536e-03	9.989132e-01	4.033853e-03	9.969604e-01	4.903597e-03	
23	8.301724e-11	0.000000e+00	9.998967e-01	1.117297e-04	9.998723e-01	1.153526e-04	9.998719e-01	1.203075e-04	9.997082e-01	2.671735e-03	9.993060e-01	2.013976e-03	9.981924e-01	2.894277e-03	
24	9.301724e-11	0.000000e+00	9.999052e-01	9.875639e-05	9.998969e-01	1.002177e-04	9.998966e-01	1.031594e-04	9.997991e-01	1.595241e-03	9.995500e-01	1.044590e-03	9.989166e-01	1.721631e-03	
25	1.030172e-10	0.000000e+00	9.999081e-01	9.024856e-05	9.999046e-01	9.080128e-05	9.999045e-01	9.330059e-05	9.998471e-01	9.656317e-04	9.996974e-01	5.538402e-04	9.993386e-01	1.042497e-03	
26	1.130172e-10	0.000000e+00	9.999093e-01	9.145328e-05	9.999083e-01	9.167482e-05	9.999082e-01	9.272818e-05	9.998742e-01	6.022812e-04	9.997856e-01	3.274945e-04	9.995818e-01	6.447136e-04	
27	1.230172e-10	0.000000e+00	9.999095e-01	8.827561e-05	9.999088e-01	8.834781e-05	9.999087e-01	8.940621e-05	9.998886e-01	3.882467e-04	9.998373e-01	2.018840e-04	9.997220e-01	4.158135e-04	
28	1.330172e-10	0.000000e+00	9.999098e-01	9.043424e-05	9.999096e-01	9.047108e-05	9.999096e-01	9.071988e-05	9.998973e-01	2.662255e-04	9.998677e-01	1.522226e-04	9.998017e-01	2.805244e-04	
29	1.430172e-10	0.000000e+00	9.999097e-01	8.827420e-05	9.999093e-01	8.827896e-05	9.999093e-01	8.875144e-05	9.999017e-01	1.930135e-04	9.998852e-01	1.158625e-04	9.998477e-01	2.038040e-04	
30	1.530172e-10	0.000000e+00	9.999098e-01	9.012613e-05	9.999097e-01	9.013644e-05	9.999097e-01	9.012356e-05	9.999047e-01	1.525112e-04	9.998954e-01	1.081031e-04	9.998734e-01	1.574536e-04	
31	1.630172e-10	0.000000e+00	9.999097e-01	8.844905e-05	9.999094e-01	8.844546e-05	9.999094e-01	8.868956e-05	9.999060e-01	1.270672e-04	9.999012e-01	9.470768e-05	9.998884e-01	1.320729e-04	
32	1.730172e-10	0.000000e+00	9.999098e-01	8.993340e-05	9.999097e-01	8.993933e-05	9.999097e-01	8.986053e-05	9.999071e-01	1.140142e-04	9.999047e-01	9.641941e-05	9.998965e-01	1.159078e-04	
33	1.830172e-10	0.000000e+00	9.999097e-01	8.861054e-05	9.999095e-01	8.860655e-05	9.999095e-01	8.875336e-05	9.999074e-01	1.048316e-04	9.999066e-01	8.965303e-05	9.999015e-01	1.077833e-04	
34	1.930172e-10	0.000000e+00	9.999098e-01	8.978435e-05	9.999097e-01	8.978898e-05	9.999097e-01	8.970630e-05	9.999079e-01	1.009566e-04	9.999077e-01	9.299934e-05	9.999039e-01	1.019111e-04	
35	2.000000e-10	0.000000e+00	9.999097e-01	8.876789e-05	9.999095e-01	8.876462e-05	9.999095e-01	8.885936e-05	9.999079e-01	9.808362e-05	9.999082e-01	8.885836e-05	9.999053e-01	1.002910e-04	
36	2.010000e-10	8.000000e-03	1.000002e+00	9.016241e-05	9.999096e-01	8.912230e-05	9.999096e-01	8.915655e-05	9.999079e-01	9.816474e-05	9.999082e-01	9.012898e-05	9.999053e-01	9.981071e-05	
37	2.030000e-10	2.400000e-02	1.000332e+00	9.547860e-05	9.999097e-01	8.929491e-05	9.999096e-01	8.929244e-05	9.999080e-01	9.784163e-05	9.999083e-01	9.069147e-05	9.999055e-01	9.924818e-05	
38	2.070000e-10	5.600000e-02	1.001291e+00	1.162361e-04	9.999101e-01	8.919736e-05	9.999096e-01	8.920449e-05	9.999080e-01	9.701652e-05	9.999085e-01	9.016577e-05	9.999059e-01	9.850111e-05	
39	2.150000e-10	1.200000e-01	1.002453e+00	1.330939e-04	9.999107e-01	8.929207e-05	9.999096e-01	8.926991e-05	9.999081e-01	9.598462e-05	9.999088e-01	9.030686e-05	9.999065e-01	9.725790e-05	
40	2.250000e-10	2.000000e-01	1.001591e+00	8.743941e-05	9.999090e-01	8.917575e-05	9.999096e-01	8.920766e-05	9.999081e-01	9.506677e-05	9.999090e-01	8.990577e-05	9.999070e-01	9.637493e-05	
41	2.350000e-10	2.800000e-01	9.956832e-01	-2.628923e-05	9.999063e-01	8.919547e-05	9.999096e-01	8.925951e-05	9.999082e-01	9.462546e-05	9.999091e-01	9.008213e-05	9.999072e-01	9.579365e-05	
42	2.450000e-10	3.600000e-01	9.776141e-01	-2.940805e-04	9.999017e-01	8.909797e-05	9.999096e-01	8.921147e-05	9.999082e-01	9.428450e-05	9.999091e-01	8.983119e-05	9.999073e-01	9.551784e-05	
43	2.550000e-10	4.400000e-01	9.365559e-01	-7.940664e-04	9.998938e-01	8.907017e-05	9.999096e-01	8.925300e-05	9.999082e-01	9.416388e-05	9.999092e-01	9.000193e-05	9.999074e-01	9.530114e-05	
44	2.650000e-10	5.200000e-01	8.564953e-01	-1.321546e-03	9.998887e-01	8.904364e-05	9.999096e-01	8.921549e-05	9.999082e-01	9.402271e-05	9.999092e-01	8.982383e-05	9.999075e-01	9.522656e-05	
45	2.750000e-10	6.000000e-01	7.195479e-01	2.409485e-03	9.999775e-01	9.074520e-05	9.999096e-01	8.924903e-05	9.999082e-01	9.400585e-05	9.999092e-01	8.996596e-05	9.999075e-01	9.513650e-05	
46	2.850000e-10	6.800000e-01	5.263595e-01	3.886475e-02	1.000759e+00	1.037278e-04	9.999099e-01	8.922403e-05	9.999082e-01	9.393631e-05	9.999092e-01	8.983271e-05	9.999075e-01	9.512669e-05	
47	2.950000e-10	7.600000e-01	3.093290e-01	1.918810e-01	1.003044e+00	1.377342e-04	9.999105e-01	8.925945e-05	9.999082e-01	9.395066e-05	9.999092e-01	8.994546e-05	9.999075e-01	9.508230e-05	
48	3.050000e-10	8.400000e-01	1.407893e-01	4.726181e-01	9.723399e-01	-4.183719e-04	9.998987e-01	8.902608e-05	9.999082e-01	9.390879e-05	9.999092e-01	8.984401e-05	9.999075e-01	9.509168e-05	
49	3.150000e-10	9.200000e-01	5.746809e-02	7.364098e-01	7.935692e-01	-2.330865e-03	9.998586e-01	8.840769e-05	9.999082e-01	9.393033e-05	9.999092e-01	8.993164e-05	9.999075e-01	9.506500e-05	
50	3.250000e-10	1.000000e+00	2.351098e-02	8.859859e-01	4.644378e-01	4.086094e-02	1.000788e+00	1.047130e-04	9.999085e-01	9.390351e-05	9.999092e-01	8.985417e-05	9.999075e-01	9.508098e-05	
51	3.260000e-10	1.000000e+00	2.170469e-02	8.944465e-01	4.291632e-01	5.253865e-02	1.001034e+00	1.089830e-04	9.999086e-01	9.391403e-05	9.999092e-01	8.988087e-05	9.999075e-01	9.507443e-05	
52	3.280000e-10	1.000000e+00	1.829694e-02	9.102018e-01	3.620980e-01	8.230470e-02	1.001662e+00	1.198546e-04	9.999088e-01	9.391898e-05	9.999092e-01	8.989507e-05	9.999075e-01	9.507275e-05	
53	3.320000e-10	1.000000e+00	1.268842e-02	9.357306e-01	2.519481e-01	1.766995e-01	1.003556e+00	1.537795e-04	9.999095e-01	9.392187e-05	9.999092e-01	8.988647e-05	9.999075e-01	9.507905e-05	
54	3.400000e-10	1.000000e+00	6.004111e-03	9.684466e-01	1.172981e-01	4.332751e-01	9.879782e-01	-1.388175e-04	9.999043e-01	9.388162e-05	9.999092e-01	8.989304e-05	9.999075e-01	9.504435e-05	
55	3.486923e-10	1.000000e+00	2.747935e-03	9.857773e-01	5.235928e-02	6.913275e-01	8.595027e-01	-2.227632e-03	9.998640e-01	9.349693e-05	9.999092e-01	8.988720e-05	9.999075e-01	9.471836e-05	
56	3.574351e-10	1.000000e+00	1.254625e-03	9.936754e-01	2.322475e-02	8.504102e-01	5.829741e-01	1.017761e-02	1.000093e+00	9.539328e-05	9.999092e-01	8.989235e-05	9.999075e-01	9.621566e-05	
57	3.659315e-10	1.000000e+00	6.375938e-04	9.970784e-01	1.110618e-02	9.272247e-01	3.041230e-01	1.234681e-01	1.002180e+00	1.146530e-04	9.999095e-01	8.989122e-05	9.999075e-01	1.125654e-04	
58	3.750725e-10	1.000000e+00	3.085398e-04	9.987263e-01	4.990471e-03	9.677799e-01	1.258928e-01	3.965413e-01	9.926740e-01	3.515221e-05	9.999085e-01	8.988392e-05	9.999075e-01	5.010658e-05	
59	3.841904e-10	1.000000e+00	1.950532e-04	9.993943e-01	2.339623e-03	9.861011e-01	5.354104e-02	6.759107e-01	8.891998e-01	-8.934291e-04	9.998954e-01	8.972926e-05	9.999075e-01	-7.424511e-04	
60	3.941904e-10	1.000000e+00	1.191257e-04	9.997157e-01	1.018867e-03	9.945157e-01	2.117537e-02	8.604388e-01	6.176535e-01	3.857539e-03	9.999577e-01	9.043689e-05	9.999075e-01	3.081278e-03	
61	4.032031e-10	1.000000e+00	1.119084e-04	9.998175e-01	4.816051e-04	9.976248e-01	9.588933e-03	9.359534e-01	3.557750e-01	6.279875e-02	1.000792e+00	9.999865e-05	9.999076e-01	5.319325e-02	
62	4.130971e-10	1.000000e+00	8.950896e-05	9.998778e-01	2.806700e-04	9.989876e-01	4.133545e-03	9.732887e-01	1.739470e-01	2.463054e-01	1.001888e+00	1.124734e-04	9.999078e-01	2.196426e-01	
63	4.230971e-10	1.000000e+00	9.678884e-05	9.998927e-01	1.264019e-04	9.995686e-01	1.701698e-03	9.891327e-01	8.223657e-02	4.793756e-01	9.778372e-01	-1.708990e-04	9.999044e-01	4.454932e-01	
64	4.330971e-10	1.000000e+00	8.537804e-05	9.999062e-01	1.447211e-04	9.997582e-01	8.199318e-04	9.950500e-01	3.729353e-02	6.546189e-01	8.721886e-01	-1.259848e-03	9.998900e-01	6.253327e-01	
65	4.430971e-10	1.000000e+00	9.356599e-05	9.999055e-01	6.961152e-05	9.998615e-01	3.143709e-04	9.980099e-01	1.776411e-02	7.651166e-01	6.746644e-01	2.270335e-03	9.999308e-01	7.423889e-01	
66	4.516120e-10	1.000000e+00	8.564739e-05	9.999100e-01	1.226578e-04	9.998779e-01	2.785811e-04	9.988036e-01	1.025953e-02	8.311302e-01	4.783033e-01	3.255486e-02	1.000317e+00	8.149161e-01	
67	4.606311e-10	1.000000e+00	9.226687e-05	9.999080e-01	6.408417e-05	9.999018e-01	1.005531e-04	9.995225e-01	6.134888e-03	8.852318e-01	2.977676e-01	1.407438e-01	1.001623e+00	8.752871e-01	
68	4.706311e-10	1.000000e+00	8.630084e-05	9.999103e-01	1.155273e-04	9.999022e-01	1.640048e-04	9.996246e-01	3.916054e-03	9.277583e-01	1.650574e-01	3.508940e-01	9.973157e-01	9.218277e-01	
69	4.801658e-10	1.000000e+00	9.151903e-05	9.999087e-01	6.600876e-05	9.999092e-01	5.614247e-05	9.998657e-01	2.400439e-03	9.539716e-01	9.332711e-02	5.649447e-01	9.536645e-01	9.504826e-01	
70	4.868935e-10	1.000000e+00	8.700403e-05	9.999101e-01	1.102186e-04	9.999077e-01	1.353941e-04	9.997929e-01	1.955884e-03	9.667705e-01	6.192712e-02	6.886033e-01	8.722161e-01	9.642344e-01	
71	4.938391e-10	1.000000e+00	9.078726e-05	9.999091e-01	7.111168e-05	9.999091e-01	5.837897e-05	9.999022e-01	1.283152e-03	9.762867e-01	4.071646e-02	7.839621e-01	7.407199e-01	9.745647e-01	
72	5.022522e-10	1.000000e+00	8.754969e-05	9.999100e-01	1.055167e-04	9.999095e-01	1.219834e-04	9.998497e-01	1.047893e-03	9.843387e-01	2.442517e-02	8.632697e-01	5.553334e-01	9.832073e-01	
73	5.101446e-10	1.000000e+00	9.034765e-05	9.999092e-01	7.496523e-05	9.999090e-01	6.319254e-05	9.999162e-01	6.084445e-04	9.894464e-01	1.530844e-02	9.122984e-01	3.972196e-01	9.887000e-01	
74	5.198089e-10	1.000000e+00	8.790607e-05	9.999099e-01	1.020848e-04	9.999101e-01	1.141124e-04	9.998761e-01	5.429571e-04	9.934601e-01	8.624948e-03	9.503671e-01	2.573652e-01	9.930053e-01	
75	5.298089e-10	1.000000e+00	9.007115e-05	9.999093e-01	7.767666e-05	9.999089e-01	6.764498e-05	9.999209e-01	2.513608e-04	9.960794e-01	4.806640e-03	9.723560e-01	1.597507e-01	9.958049e-01	
