
Circuit: * spice from s2s

Doing analysis at TEMP = 75.000000 and TNOM = 27.000000


Initial Transient Solution
--------------------------

Node                                   Voltage
----                                   -------
n0                                           0
n16                                          0
n17                                          1
n18                                          1
n19                                          0
n20                                          0
n21                                          1
n22                                          1
n23                                          0
n24                                          0
n25                                          1
n26                                          1
n27                                          0
n28                                          0
n29                                          1
n1                                           1
n34                                          1
n35                                          0
n36                                          0
n37                                          1
n50                                          1
n51                                          0
n52                                          0
n53                                          1
n3                                           1
n32                                          1
n33                                          0
n38                                          0
n39                                          1
n48                                          1
n49                                          0
n54                                          0
n55                                          1
n30                                          1
n31                                          0
n4                                           1
n7                                           0
n40                                          0
n41                                          1
n46                                          1
n47                                          0
n42                                          0
n43                                          1
n44                                          1
n45                                          0
n8                                           0
n58                                          0
n59                                          1
n56                                          0
n57                                          1
n10                                          1
n13                                          0
n60                                          0
n61                                          1
n62                                          0
n63                                          1
n2                                           1
n5                                           1
n6                                           1
n9                                           1
n11                                          1
n12                                          1
n14                                          1
n15                                          1
nseg_node_64                                 0
nseg_node_65                                 0
nseg_node_66                                 0
nseg_node_67                                 0
nseg_node_68                                 0
nseg_node_69                                 0
nseg_node_70                                 0
nseg_node_71                                 0
nseg_node_72                                 0
nseg_node_73                                 0
nseg_node_74                                 0
nseg_node_75                                 0
nseg_node_76                                 0
nseg_node_77                                 0
nseg_node_78                                 0
nseg_node_79                                 0
nseg_node_80                                 0
nseg_node_81                                 0
nseg_node_82                                 0
nseg_node_83                                 0
nseg_node_84                                 0
nseg_node_85                                 0
nseg_node_86                                 0
nseg_node_87                                 0
nseg_node_88                                 0
nseg_node_89                                 0
nseg_node_90                                 0
gin                                          1
vdd                                          1
vdt#branch                                   0
vdd#branch                        -4.33394e-05


No. of Data Rows : 221

                                                                                                                * spice from s2s
                                                                                                                Transient Analysis  Sat Feb  7 10:40:23  2009
------------------------------------------------------------------------------------------------------------------------------------------------------------------------------------------------------------------------------------------------
Index   time            v(gin)          v(n16)          v(n18)          v(n20)          v(n22)          v(n24)          v(n26)          v(n28)          v(n34)          v(n36)          v(n50)          v(n52)          v(n32)          
------------------------------------------------------------------------------------------------------------------------------------------------------------------------------------------------------------------------------------------------
0	0.000000e+00	1.000000e+00	0.000000e+00	1.000000e+00	0.000000e+00	1.000000e+00	0.000000e+00	1.000000e+00	0.000000e+00	1.000000e+00	0.000000e+00	1.000000e+00	0.000000e+00	1.000000e+00	
1	1.000000e-13	1.000000e+00	-1.008145e-03	9.400774e-01	-1.052509e-03	9.400774e-01	-1.052505e-03	9.400767e-01	-1.945537e-03	9.007068e-01	-1.080989e-03	9.384783e-01	-1.456202e-03	9.988900e-01	
2	1.262190e-13	1.000000e+00	-1.327759e-03	9.253079e-01	-1.387419e-03	9.253079e-01	-1.387414e-03	9.253069e-01	-2.553242e-03	8.772606e-01	-1.426067e-03	9.231316e-01	-1.915438e-03	9.985085e-01	
3	1.786571e-13	1.000000e+00	-2.056612e-03	8.975333e-01	-2.155128e-03	8.975333e-01	-2.155121e-03	8.975316e-01	-3.914709e-03	8.350461e-01	-2.220508e-03	8.939145e-01	-2.957115e-03	9.975455e-01	
4	2.835332e-13	1.000000e+00	-3.877030e-03	8.513072e-01	-4.109295e-03	8.513071e-01	-4.109283e-03	8.513029e-01	-7.145783e-03	7.737627e-01	-4.271480e-03	8.433624e-01	-5.533954e-03	9.943405e-01	
5	4.932854e-13	1.000000e+00	-7.905321e-03	7.862418e-01	-8.638358e-03	7.862408e-01	-8.638350e-03	7.862255e-01	-1.369465e-02	7.092119e-01	-9.153001e-03	7.660796e-01	-1.126835e-02	9.834324e-01	
6	9.127899e-13	1.000000e+00	-1.428575e-02	7.187926e-01	-1.665880e-02	7.187849e-01	-1.665894e-02	7.187299e-01	-2.261914e-02	6.786437e-01	-1.813700e-02	6.695014e-01	-2.098531e-02	9.534005e-01	
7	1.366770e-12	1.000000e+00	-1.738218e-02	6.924336e-01	-2.181331e-02	6.924083e-01	-2.181392e-02	6.923114e-01	-2.567899e-02	6.897051e-01	-2.416721e-02	6.130164e-01	-2.700912e-02	9.216350e-01	
8	2.093219e-12	1.000000e+00	-1.710311e-02	6.836143e-01	-2.384048e-02	6.835476e-01	-2.384230e-02	6.834447e-01	-2.383314e-02	7.125745e-01	-2.674678e-02	5.669096e-01	-2.941329e-02	8.858779e-01	
9	3.090748e-12	1.000000e+00	-1.343426e-02	6.958270e-01	-2.052613e-02	6.957214e-01	-2.052888e-02	6.956950e-01	-1.800963e-02	7.411649e-01	-2.358407e-02	5.461206e-01	-2.574752e-02	8.582413e-01	
10	4.761999e-12	1.000000e+00	-7.881716e-03	7.314693e-01	-1.120323e-02	7.314242e-01	-1.120272e-02	7.314914e-01	-8.910123e-03	7.790753e-01	-1.542510e-02	5.532246e-01	-1.460318e-02	8.384734e-01	
11	7.151626e-12	1.000000e+00	-3.128754e-03	7.837277e-01	-7.066960e-06	7.839185e-01	1.335894e-06	7.839654e-01	4.047919e-05	8.179415e-01	-6.764380e-03	5.931880e-01	1.986624e-03	8.367051e-01	
12	1.037851e-11	1.000000e+00	3.394231e-04	8.419344e-01	7.605847e-03	8.423229e-01	7.615057e-03	8.422909e-01	5.790594e-03	8.536246e-01	-5.246400e-04	6.560714e-01	1.958567e-02	8.522132e-01	
13	1.493518e-11	1.000000e+00	2.609240e-03	9.001186e-01	1.017332e-02	9.003960e-01	1.017074e-02	9.003349e-01	7.888949e-03	8.872430e-01	3.441840e-03	7.353117e-01	3.253247e-02	8.801453e-01	
14	2.102953e-11	1.000000e+00	3.181830e-03	9.466368e-01	8.776304e-03	9.466195e-01	8.764293e-03	9.466034e-01	7.325695e-03	9.181904e-01	5.372454e-03	8.174298e-01	3.419635e-02	9.122762e-01	
15	2.932413e-11	1.000000e+00	2.385186e-03	9.779947e-01	5.472856e-03	9.778299e-01	5.464823e-03	9.778554e-01	5.326075e-03	9.469230e-01	5.653359e-03	8.918481e-01	2.628549e-02	9.431144e-01	
16	3.932413e-11	1.000000e+00	1.247500e-03	9.926430e-01	2.545203e-03	9.925055e-01	2.544167e-03	9.925350e-01	3.186744e-03	9.686390e-01	4.565656e-03	9.432101e-01	1.657584e-02	9.663603e-01	
17	4.932413e-11	1.000000e+00	5.834784e-04	9.975082e-01	1.088911e-03	9.974284e-01	1.089781e-03	9.974414e-01	1.819050e-03	9.814399e-01	3.211499e-03	9.703576e-01	9.965996e-03	9.801050e-01	
18	5.932413e-11	1.000000e+00	2.825737e-04	9.990942e-01	4.690287e-04	9.990553e-01	4.700425e-04	9.990565e-01	1.041255e-03	9.890217e-01	2.115021e-03	9.845372e-01	5.851019e-03	9.882252e-01	
19	6.932413e-11	1.000000e+00	1.621857e-04	9.996452e-01	2.311823e-04	9.996275e-01	2.318649e-04	9.996236e-01	6.164253e-04	9.934805e-01	1.344417e-03	9.919185e-01	3.392773e-03	9.930203e-01	
20	7.932413e-11	1.000000e+00	1.153087e-04	9.998114e-01	1.391735e-04	9.998039e-01	1.396190e-04	9.997995e-01	3.843306e-04	9.961270e-01	8.462638e-04	9.957588e-01	1.968332e-03	9.958480e-01	
21	8.932413e-11	1.000000e+00	9.878009e-05	9.998838e-01	1.081186e-04	9.998807e-01	1.083771e-04	9.998769e-01	2.571315e-04	9.976733e-01	5.355293e-04	9.977471e-01	1.145732e-03	9.975167e-01	
22	9.932413e-11	1.000000e+00	9.224079e-05	9.998942e-01	9.503090e-05	9.998930e-01	9.519098e-05	9.998904e-01	1.860331e-04	9.985978e-01	3.500432e-04	9.987867e-01	6.848373e-04	9.984983e-01	
23	1.093241e-10	1.000000e+00	9.036612e-05	9.999101e-01	9.197830e-05	9.999096e-01	9.206633e-05	9.999079e-01	1.460159e-04	9.991304e-01	2.390361e-04	9.993214e-01	4.203861e-04	9.990783e-01	
24	1.193241e-10	1.000000e+00	8.935737e-05	9.999047e-01	8.960688e-05	9.999045e-01	8.966281e-05	9.999035e-01	1.231183e-04	9.994552e-01	1.758696e-04	9.996050e-01	2.768302e-04	9.994181e-01	
25	1.293241e-10	1.000000e+00	8.927783e-05	9.999123e-01	8.985017e-05	9.999123e-01	8.987819e-05	9.999116e-01	1.099126e-04	9.996362e-01	1.382080e-04	9.997482e-01	1.928838e-04	9.996199e-01	
26	1.393241e-10	1.000000e+00	8.903459e-05	9.999066e-01	8.903739e-05	9.999066e-01	8.905761e-05	9.999063e-01	1.023063e-04	9.997521e-01	1.178369e-04	9.998269e-01	1.497814e-04	9.997369e-01	
27	1.493241e-10	1.000000e+00	8.912276e-05	9.999120e-01	8.951260e-05	9.999120e-01	8.952052e-05	9.999117e-01	9.778979e-05	9.998118e-01	1.052147e-04	9.998645e-01	1.227613e-04	9.998075e-01	
28	1.593241e-10	1.000000e+00	8.901303e-05	9.999074e-01	8.903151e-05	9.999074e-01	8.903964e-05	9.999073e-01	9.525101e-05	9.998547e-01	9.897872e-05	9.998871e-01	1.106454e-04	9.998474e-01	
29	1.693241e-10	1.000000e+00	8.909123e-05	9.999114e-01	8.942012e-05	9.999115e-01	8.942153e-05	9.999113e-01	9.364899e-05	9.998728e-01	9.464725e-05	9.998965e-01	1.014356e-04	9.998724e-01	
30	1.793241e-10	1.000000e+00	8.902021e-05	9.999079e-01	8.907353e-05	9.999079e-01	8.907744e-05	9.999079e-01	9.283017e-05	9.998900e-01	9.290614e-05	9.999035e-01	9.863275e-05	9.998856e-01	
31	1.893241e-10	1.000000e+00	8.908010e-05	9.999110e-01	8.937336e-05	9.999110e-01	8.937278e-05	9.999110e-01	9.222454e-05	9.998941e-01	9.131142e-05	9.999054e-01	9.505067e-05	9.998949e-01	
32	1.993241e-10	1.000000e+00	8.902672e-05	9.999083e-01	8.910864e-05	9.999083e-01	8.911094e-05	9.999083e-01	9.199417e-05	9.999020e-01	9.094177e-05	9.999079e-01	9.491941e-05	9.998989e-01	
33	2.000000e-10	1.000000e+00	8.905869e-05	9.999096e-01	8.924313e-05	9.999096e-01	8.924350e-05	9.999096e-01	9.191298e-05	9.999004e-01	9.078196e-05	9.999076e-01	9.425187e-05	9.998997e-01	
34	2.010000e-10	9.920000e-01	-4.405080e-06	9.999086e-01	8.922228e-05	9.999096e-01	8.923435e-05	9.999096e-01	9.191666e-05	9.999009e-01	9.071404e-05	9.999076e-01	9.422064e-05	9.998999e-01	
35	2.030000e-10	9.760000e-01	-3.175244e-04	9.999035e-01	8.914615e-05	9.999096e-01	8.923097e-05	9.999096e-01	9.187920e-05	9.999016e-01	9.062816e-05	9.999078e-01	9.409132e-05	9.999005e-01	
36	2.070000e-10	9.440000e-01	-1.078560e-03	9.998829e-01	8.873419e-05	9.999096e-01	8.923462e-05	9.999096e-01	9.180975e-05	9.999025e-01	9.048259e-05	9.999081e-01	9.381098e-05	9.999016e-01	
37	2.150000e-10	8.800000e-01	-1.681849e-03	9.998672e-01	8.846746e-05	9.999096e-01	8.923083e-05	9.999096e-01	9.170843e-05	9.999041e-01	9.026835e-05	9.999086e-01	9.344945e-05	9.999032e-01	
38	2.250000e-10	8.000000e-01	-3.742712e-04	9.999213e-01	9.001800e-05	9.999096e-01	8.923503e-05	9.999096e-01	9.162800e-05	9.999052e-01	9.010763e-05	9.999089e-01	9.315792e-05	9.999045e-01	
39	2.350000e-10	7.200000e-01	5.824032e-03	1.000066e+00	9.239825e-05	9.999097e-01	8.923280e-05	9.999096e-01	9.158111e-05	9.999060e-01	9.001437e-05	9.999090e-01	9.301671e-05	9.999052e-01	
40	2.450000e-10	6.400000e-01	2.296319e-02	1.000397e+00	9.655922e-05	9.999097e-01	8.923548e-05	9.999096e-01	9.155321e-05	9.999063e-01	8.996396e-05	9.999091e-01	9.292309e-05	9.999057e-01	
41	2.550000e-10	5.600000e-01	5.951331e-02	1.001007e+00	1.033537e-04	9.999098e-01	8.923354e-05	9.999096e-01	9.153703e-05	9.999066e-01	8.993272e-05	9.999092e-01	9.288644e-05	9.999059e-01	
42	2.650000e-10	4.800000e-01	1.331488e-01	1.001915e+00	1.111415e-04	9.999099e-01	8.923587e-05	9.999096e-01	9.152736e-05	9.999067e-01	8.991769e-05	9.999092e-01	9.285355e-05	9.999061e-01	
43	2.750000e-10	4.000000e-01	2.645065e-01	9.998871e-01	6.328226e-05	9.999087e-01	8.921241e-05	9.999096e-01	9.152176e-05	9.999068e-01	8.990627e-05	9.999092e-01	9.284693e-05	9.999062e-01	
44	2.850000e-10	3.200000e-01	4.471370e-01	9.679274e-01	-4.924313e-04	9.998971e-01	8.901898e-05	9.999096e-01	9.151835e-05	9.999069e-01	8.990269e-05	9.999092e-01	9.283335e-05	9.999062e-01	
45	2.950000e-10	2.400000e-01	6.468557e-01	8.290764e-01	-2.151904e-03	9.998639e-01	8.852412e-05	9.999096e-01	9.151630e-05	9.999069e-01	8.989763e-05	9.999092e-01	9.283467e-05	9.999063e-01	
46	3.050000e-10	1.600000e-01	8.122135e-01	5.516168e-01	1.989327e-02	1.000345e+00	9.711705e-05	9.999097e-01	9.151799e-05	9.999069e-01	8.989780e-05	9.999092e-01	9.282778e-05	9.999063e-01	
47	3.150000e-10	8.000000e-02	9.133109e-01	2.634472e-01	1.781906e-01	1.003135e+00	1.430837e-04	9.999107e-01	9.153137e-05	9.999069e-01	8.989478e-05	9.999092e-01	9.283062e-05	9.999063e-01	
48	3.250000e-10	0.000000e+00	9.625581e-01	1.001853e-01	4.859412e-01	9.706718e-01	-4.416861e-04	9.998984e-01	9.133866e-05	9.999069e-01	8.989617e-05	9.999092e-01	9.282648e-05	9.999063e-01	
49	3.260000e-10	0.000000e+00	9.654053e-01	9.233444e-02	5.192846e-01	9.615765e-01	-6.027580e-04	9.998950e-01	9.128667e-05	9.999069e-01	8.989512e-05	9.999092e-01	9.282754e-05	9.999063e-01	
50	3.280000e-10	0.000000e+00	9.708510e-01	7.773783e-02	5.832049e-01	9.382529e-01	-1.015228e-03	9.998864e-01	9.115373e-05	9.999069e-01	8.989499e-05	9.999092e-01	9.282825e-05	9.999063e-01	
51	3.320000e-10	0.000000e+00	9.797637e-01	5.456697e-02	6.923222e-01	8.584067e-01	-2.357459e-03	9.998566e-01	9.068614e-05	9.999069e-01	8.989486e-05	9.999092e-01	9.282761e-05	9.999063e-01	
52	3.400000e-10	0.000000e+00	9.906542e-01	2.624185e-02	8.401171e-01	6.054266e-01	6.302801e-03	1.000037e+00	9.355751e-05	9.999069e-01	8.989485e-05	9.999092e-01	9.282780e-05	9.999063e-01	
53	3.493034e-10	0.000000e+00	9.962337e-01	1.133905e-02	9.280354e-01	3.033688e-01	1.277388e-01	1.002553e+00	1.323414e-04	9.999074e-01	8.989996e-05	9.999092e-01	9.282733e-05	9.999067e-01	
54	3.578988e-10	0.000000e+00	9.983192e-01	5.405596e-03	9.662593e-01	1.328948e-01	3.837212e-01	9.939542e-01	-7.610865e-06	9.999062e-01	8.988624e-05	9.999092e-01	9.282754e-05	9.999058e-01	
55	3.675866e-10	0.000000e+00	9.992996e-01	2.354317e-03	9.862622e-01	5.288022e-02	6.780485e-01	8.685617e-01	-1.797618e-03	9.998853e-01	8.964454e-05	9.999092e-01	9.282721e-05	9.998878e-01	
56	3.775866e-10	0.000000e+00	9.996769e-01	1.016720e-03	9.945794e-01	2.094194e-02	8.604401e-01	5.589337e-01	1.414660e-02	1.000056e+00	9.157810e-05	9.999092e-01	9.282765e-05	1.000028e+00	
57	3.867180e-10	0.000000e+00	9.998139e-01	4.987151e-04	9.976731e-01	9.360091e-03	9.364211e-01	2.689890e-01	1.343966e-01	1.001406e+00	1.071054e-04	9.999095e-01	9.282967e-05	1.001195e+00	
58	3.956419e-10	0.000000e+00	9.998665e-01	2.682188e-04	9.989197e-01	4.470475e-03	9.711418e-01	1.124551e-01	3.789528e-01	9.972574e-01	6.016190e-05	9.999089e-01	9.282436e-05	9.979967e-01	
59	4.045763e-10	0.000000e+00	9.998923e-01	1.724031e-04	9.994881e-01	2.035463e-03	9.874273e-01	4.855974e-02	6.200311e-01	9.406342e-01	-5.964483e-04	9.998997e-01	9.273079e-05	9.497146e-01	
60	4.145763e-10	0.000000e+00	9.999020e-01	1.171954e-04	9.997344e-01	9.819574e-04	9.949397e-01	1.914005e-02	7.954613e-01	7.529509e-01	-1.095505e-03	9.998903e-01	9.262962e-05	7.790530e-01	
61	4.239710e-10	0.000000e+00	9.999073e-01	1.059032e-04	9.998408e-01	3.841207e-04	9.979938e-01	8.971496e-03	8.929809e-01	5.185285e-01	1.968870e-02	1.000184e+00	9.559694e-05	5.528773e-01	
62	4.325306e-10	0.000000e+00	9.999080e-01	9.175196e-05	9.998737e-01	3.146012e-04	9.989400e-01	4.910293e-03	9.438918e-01	3.499161e-01	1.023865e-01	1.001368e+00	1.077695e-04	3.807549e-01	
63	4.425306e-10	0.000000e+00	9.999095e-01	9.496266e-05	9.998975e-01	9.825001e-05	9.996242e-01	2.428950e-03	9.737671e-01	2.277007e-01	2.892483e-01	1.000555e+00	9.925036e-05	2.510419e-01	
64	4.525306e-10	0.000000e+00	9.999093e-01	8.699776e-05	9.999034e-01	1.671148e-04	9.997029e-01	1.207037e-03	9.873061e-01	1.512830e-01	5.064685e-01	9.681029e-01	-2.366493e-04	1.676030e-01	
65	4.625306e-10	0.000000e+00	9.999098e-01	9.258085e-05	9.999077e-01	5.074623e-05	9.999012e-01	5.829248e-04	9.934107e-01	9.817829e-02	6.896331e-01	8.465780e-01	-1.249643e-03	1.081806e-01	
66	4.725306e-10	0.000000e+00	9.999096e-01	8.662861e-05	9.999087e-01	1.376841e-04	9.998345e-01	3.481720e-04	9.963318e-01	6.216532e-02	8.150508e-01	6.294984e-01	4.730375e-03	6.819798e-02	
67	4.819634e-10	0.000000e+00	9.999098e-01	9.181605e-05	9.999090e-01	5.061628e-05	9.999391e-01	1.868283e-04	9.978021e-01	4.020333e-02	8.891774e-01	4.066576e-01	5.400516e-02	4.399782e-02	
68	4.919634e-10	0.000000e+00	9.999097e-01	8.695359e-05	9.999098e-01	1.265934e-04	9.998669e-01	1.730578e-04	9.986401e-01	2.503114e-02	9.375327e-01	2.276495e-01	1.970168e-01	2.725003e-02	
69	5.019634e-10	0.000000e+00	9.999098e-01	9.133917e-05	9.999091e-01	5.637156e-05	9.999398e-01	9.918854e-05	9.991682e-01	1.544704e-02	9.651962e-01	1.235753e-01	4.015084e-01	1.677315e-02	
70	5.119634e-10	0.000000e+00	9.999097e-01	8.733500e-05	9.999101e-01	1.192963e-04	9.998797e-01	1.291657e-04	9.994283e-01	9.469215e-03	9.806766e-01	6.690855e-02	5.889773e-01	1.022954e-02	
71	5.197895e-10	0.000000e+00	9.999098e-01	9.090479e-05	9.999090e-01	6.312878e-05	9.999332e-01	8.102541e-05	9.996100e-01	6.417834e-03	9.877866e-01	4.100212e-02	6.971050e-01	6.942351e-03	
72	5.276223e-10	0.000000e+00	9.999097e-01	8.777088e-05	9.999101e-01	1.120877e-04	9.998886e-01	1.156365e-04	9.996750e-01	4.393285e-03	9.922934e-01	2.566438e-02	7.811194e-01	4.727294e-03	
73	5.359006e-10	0.000000e+00	9.999098e-01	9.051857e-05	9.999091e-01	6.925230e-05	9.999268e-01	7.784048e-05	9.997808e-01	2.883952e-03	9.952287e-01	1.576037e-02	8.535208e-01	3.111327e-03	
74	5.442169e-10	0.000000e+00	9.999098e-01	8.810358e-05	9.999101e-01	1.067528e-04	9.998946e-01	1.076834e-04	9.997969e-01	1.951356e-03	9.970962e-01	1.005713e-02	9.051612e-01	2.090751e-03	
75	5.526800e-10	0.000000e+00	9.999098e-01	9.022419e-05	9.999091e-01	7.389109e-05	9.999222e-01	7.818780e-05	9.998600e-01	1.262468e-03	9.981735e-01	6.331897e-03	9.390745e-01	1.358401e-03	
