
Circuit: * spice from s1000s

Doing analysis at TEMP = 75.000000 and TNOM = 27.000000


Initial Transient Solution
--------------------------

Node                                   Voltage
----                                   -------
n0                                         1.2
n1                                         1.2
n4                                           0
n2                                         1.2
n3                                           0
nseg_node_5                                1.2
nseg_node_6                                1.2
gin                                          0
vdd                                        1.2
vdt#branch                                   0
vdd#branch                        -8.37658e-06


No. of Data Rows : 213

                                                                                                              * spice from s1000s
                                                                                                              Transient Analysis  Fri Feb 20 21:56:54  2009
------------------------------------------------------------------------------------------------------------------------------------------------------------------------------------------------------------------------------------------------
Index   time            gin             m.x0.m1#body    m.x0.m1#dbody   m.x0.m1#gate    m.x0.m1#sbody   m.x0.m2#body    m.x0.m2#dbody   m.x0.m2#gate    m.x0.m2#sbody   m.x1.m1#body    m.x1.m1#dbody   m.x1.m1#gate    m.x1.m1#sbody   
------------------------------------------------------------------------------------------------------------------------------------------------------------------------------------------------------------------------------------------------
0	0.000000e+00	0.000000e+00	1.200000e+00	1.200000e+00	1.107109e-05	1.200000e+00	2.695134e-09	1.356642e-09	1.901597e-07	1.347567e-09	1.200000e+00	1.200000e+00	1.199998e+00	1.200000e+00	
1	1.000000e-13	0.000000e+00	1.199997e+00	1.199997e+00	8.323960e-06	1.199999e+00	-3.974678e-07	-1.644347e-06	-1.663309e-06	-1.214922e-07	1.200003e+00	1.200013e+00	1.200011e+00	1.200001e+00	
2	2.000000e-13	0.000000e+00	1.199997e+00	1.199996e+00	6.043074e-06	1.199999e+00	-4.439971e-07	-1.856425e-06	-2.905990e-06	-1.831980e-07	1.200003e+00	1.200013e+00	1.200017e+00	1.200001e+00	
3	4.000000e-13	0.000000e+00	1.199997e+00	1.199995e+00	2.136760e-06	1.199998e+00	-4.023875e-07	-1.714525e-06	-4.624610e-06	-2.180680e-07	1.200002e+00	1.200009e+00	1.200027e+00	1.200001e+00	
4	8.000000e-13	0.000000e+00	1.199998e+00	1.199997e+00	-2.823025e-06	1.199999e+00	-2.618392e-07	-1.196125e-06	-5.423438e-06	-1.389272e-07	1.200001e+00	1.200004e+00	1.200033e+00	1.200001e+00	
5	1.600000e-12	0.000000e+00	1.199998e+00	1.199998e+00	-6.147992e-06	1.199999e+00	-1.626593e-07	-7.788763e-07	-4.019195e-06	-8.223420e-08	1.200000e+00	1.200001e+00	1.200029e+00	1.200000e+00	
6	3.200000e-12	0.000000e+00	1.199999e+00	1.199999e+00	-2.834618e-06	1.200000e+00	-5.305688e-08	-2.598546e-07	-1.374156e-06	-2.974920e-08	1.200000e+00	1.200000e+00	1.200018e+00	1.200000e+00	
7	6.400000e-12	0.000000e+00	1.200000e+00	1.200000e+00	6.160226e-06	1.200000e+00	-2.603340e-08	-1.280250e-07	-2.178365e-07	-1.055045e-08	1.200000e+00	1.200000e+00	1.200003e+00	1.200000e+00	
8	1.280000e-11	0.000000e+00	1.200000e+00	1.200000e+00	1.049970e-05	1.200000e+00	1.448176e-09	-4.782334e-09	-6.770985e-09	-1.911907e-09	1.200000e+00	1.200000e+00	1.199974e+00	1.200000e+00	
9	2.280000e-11	0.000000e+00	1.200000e+00	1.200000e+00	1.013872e-05	1.200000e+00	-1.144860e-08	-6.196306e-08	7.914774e-08	-3.073697e-09	1.200000e+00	1.200000e+00	1.199934e+00	1.200000e+00	
10	3.280000e-11	0.000000e+00	1.200000e+00	1.200000e+00	1.071023e-05	1.200000e+00	6.233657e-09	1.713436e-08	9.743555e-08	4.222580e-10	1.200000e+00	1.200000e+00	1.199903e+00	1.200000e+00	
11	4.280000e-11	0.000000e+00	1.200000e+00	1.200000e+00	1.064029e-05	1.200000e+00	-8.527618e-09	-4.902717e-08	1.291552e-07	-1.544505e-09	1.200000e+00	1.200000e+00	1.199881e+00	1.200000e+00	
12	5.280000e-11	0.000000e+00	1.200000e+00	1.200000e+00	1.085417e-05	1.200000e+00	8.280389e-09	2.656639e-08	1.438350e-07	1.384061e-09	1.200000e+00	1.200000e+00	1.199864e+00	1.200000e+00	
13	6.280000e-11	0.000000e+00	1.200000e+00	1.200000e+00	1.085922e-05	1.200000e+00	-6.886786e-09	-4.179658e-08	1.560115e-07	-6.615337e-10	1.200000e+00	1.200000e+00	1.199853e+00	1.200000e+00	
14	7.280000e-11	0.000000e+00	1.200000e+00	1.200000e+00	1.095247e-05	1.200000e+00	9.263918e-09	3.115252e-08	1.679537e-07	1.818905e-09	1.200000e+00	1.200000e+00	1.199844e+00	1.200000e+00	
15	8.280000e-11	0.000000e+00	1.200000e+00	1.200000e+00	1.096278e-05	1.200000e+00	-5.939992e-09	-3.765917e-08	1.702391e-07	-1.324028e-10	1.200000e+00	1.200000e+00	1.199839e+00	1.200000e+00	
16	9.280000e-11	0.000000e+00	1.200000e+00	1.200000e+00	1.100916e-05	1.200000e+00	9.690435e-09	3.319759e-08	1.804025e-07	1.981046e-09	1.200000e+00	1.200000e+00	1.199834e+00	1.200000e+00	
17	1.028000e-10	0.000000e+00	1.200000e+00	1.200000e+00	1.101439e-05	1.200000e+00	-5.358067e-09	-3.514568e-08	1.778254e-07	2.074433e-10	1.200000e+00	1.200000e+00	1.199831e+00	1.200000e+00	
18	1.128000e-10	0.000000e+00	1.200000e+00	1.200000e+00	1.104011e-05	1.200000e+00	9.828983e-09	3.392630e-08	1.868047e-07	2.005404e-09	1.200000e+00	1.200000e+00	1.199829e+00	1.200000e+00	
19	1.228000e-10	0.000000e+00	1.200000e+00	1.200000e+00	1.104073e-05	1.200000e+00	-4.970808e-09	-3.349610e-08	1.818815e-07	4.433285e-10	1.200000e+00	1.200000e+00	1.199827e+00	1.200000e+00	
20	1.328000e-10	0.000000e+00	1.200000e+00	1.200000e+00	1.105666e-05	1.200000e+00	9.820328e-09	3.397901e-08	1.900848e-07	1.962328e-09	1.200000e+00	1.200000e+00	1.199826e+00	1.200000e+00	
21	1.428000e-10	0.000000e+00	1.200000e+00	1.200000e+00	1.105433e-05	1.200000e+00	-4.688469e-09	-3.230939e-08	1.840623e-07	6.204759e-10	1.200000e+00	1.200000e+00	1.199825e+00	1.200000e+00	
22	1.528000e-10	0.000000e+00	1.200000e+00	1.200000e+00	1.106540e-05	1.200000e+00	9.737356e-09	3.368723e-08	1.917495e-07	1.888027e-09	1.200000e+00	1.200000e+00	1.199824e+00	1.200000e+00	
23	1.628000e-10	0.000000e+00	1.200000e+00	1.200000e+00	1.106141e-05	1.200000e+00	-4.463453e-09	-3.137285e-08	1.852509e-07	7.630723e-10	1.200000e+00	1.200000e+00	1.199824e+00	1.200000e+00	
24	1.728000e-10	0.000000e+00	1.200000e+00	1.200000e+00	1.106998e-05	1.200000e+00	9.617719e-09	3.322230e-08	1.925751e-07	1.801008e-09	1.200000e+00	1.200000e+00	1.199823e+00	1.200000e+00	
25	1.828000e-10	0.000000e+00	1.200000e+00	1.200000e+00	1.106514e-05	1.200000e+00	-4.270497e-09	-3.057369e-08	1.859171e-07	8.841340e-10	1.200000e+00	1.200000e+00	1.199823e+00	1.200000e+00	
26	1.928000e-10	0.000000e+00	1.200000e+00	1.200000e+00	1.107234e-05	1.200000e+00	9.480857e-09	3.267287e-08	1.929633e-07	1.710652e-09	1.200000e+00	1.200000e+00	1.199823e+00	1.200000e+00	
27	2.000000e-10	0.000000e+00	1.200000e+00	1.200000e+00	1.106695e-05	1.200000e+00	-4.067667e-09	-2.973545e-08	1.862900e-07	1.008212e-09	1.200000e+00	1.200000e+00	1.199823e+00	1.200000e+00	
28	2.010000e-10	9.600000e-03	1.200002e+00	1.200027e+00	3.681386e-03	1.200001e+00	3.009938e-05	2.777643e-05	6.837329e-03	1.415941e-05	1.200000e+00	1.200000e+00	1.199824e+00	1.200000e+00	
29	2.030000e-10	2.880000e-02	1.199979e+00	1.200025e+00	1.543630e-02	1.199990e+00	4.675758e-05	4.084013e-05	2.440215e-02	2.367099e-05	1.200000e+00	1.200000e+00	1.199834e+00	1.200000e+00	
30	2.070000e-10	6.720000e-02	1.200012e+00	1.200004e+00	5.067290e-02	1.200004e+00	3.344743e-05	1.587798e-05	6.344896e-02	1.665220e-05	1.200000e+00	1.200000e+00	1.199942e+00	1.200000e+00	
31	2.150000e-10	1.440000e-01	1.199993e+00	1.199988e+00	1.273187e-01	1.199998e+00	3.665257e-05	1.374722e-05	1.395039e-01	1.837079e-05	1.200000e+00	1.200000e+00	1.200443e+00	1.200000e+00	
32	2.250000e-10	2.400000e-01	1.199965e+00	1.199913e+00	2.228422e-01	1.199981e+00	2.218505e-05	-2.312499e-05	2.354713e-01	1.113897e-05	1.200000e+00	1.199999e+00	1.200477e+00	1.200000e+00	
33	2.350000e-10	3.360000e-01	1.199840e+00	1.199742e+00	3.177515e-01	1.199923e+00	1.461219e-05	-8.375054e-05	3.298568e-01	7.307827e-06	1.199997e+00	1.199998e+00	1.197375e+00	1.199998e+00	
34	2.450000e-10	4.320000e-01	1.199878e+00	1.199620e+00	4.126963e-01	1.199936e+00	-2.438511e-06	-1.665148e-04	4.255644e-01	-1.115063e-06	1.199991e+00	1.199994e+00	1.187006e+00	1.199996e+00	
35	2.550000e-10	5.280000e-01	1.199937e+00	1.199512e+00	5.083617e-01	1.199971e+00	-2.030320e-05	-2.580340e-04	5.207148e-01	-1.014227e-05	1.199983e+00	1.199990e+00	1.164124e+00	1.199992e+00	
36	2.650000e-10	6.240000e-01	1.199860e+00	1.199187e+00	6.022356e-01	1.199929e+00	-6.528855e-05	-4.573712e-04	6.159549e-01	-3.237402e-05	1.199972e+00	1.199987e+00	1.122761e+00	1.199986e+00	
37	2.750000e-10	7.200000e-01	1.199789e+00	1.198814e+00	6.957916e-01	1.199896e+00	-1.294896e-04	-7.420745e-04	7.096649e-01	-6.460964e-05	1.199961e+00	1.199997e+00	1.054256e+00	1.199981e+00	
38	2.850000e-10	8.160000e-01	1.199755e+00	1.198704e+00	7.949543e-01	1.199876e+00	-1.690080e-04	-9.148090e-04	8.026739e-01	-8.439037e-05	1.199971e+00	1.200104e+00	9.504052e-01	1.199985e+00	
39	2.950000e-10	9.120000e-01	1.199830e+00	1.199017e+00	8.947432e-01	1.199916e+00	-1.402978e-04	-7.908476e-04	8.996415e-01	-7.043796e-05	1.200003e+00	1.200392e+00	8.117087e-01	1.200002e+00	
40	3.050000e-10	1.008000e+00	1.199979e+00	1.199731e+00	9.955314e-01	1.199987e+00	-4.297160e-05	-2.489606e-04	9.985026e-01	-2.180827e-05	1.200215e+00	1.201348e+00	6.550645e-01	1.200106e+00	
41	3.150000e-10	1.104000e+00	1.200002e+00	1.199788e+00	1.094268e+00	1.200003e+00	-7.338517e-05	-2.157354e-04	1.095217e+00	-3.618925e-05	1.200763e+00	1.203594e+00	5.325361e-01	1.200378e+00	
42	3.250000e-10	1.200000e+00	1.200029e+00	1.199937e+00	1.190389e+00	1.200012e+00	-6.260121e-05	-1.088378e-04	1.191263e+00	-3.185840e-05	1.200084e+00	1.200494e+00	4.060130e-01	1.200051e+00	
43	3.260000e-10	1.200000e+00	1.200000e+00	1.199891e+00	1.195090e+00	1.200001e+00	-6.839325e-05	-1.318749e-04	1.195629e+00	-3.405830e-05	1.200078e+00	1.200397e+00	3.905158e-01	1.200040e+00	
44	3.280000e-10	1.200000e+00	1.199969e+00	1.199868e+00	1.199478e+00	1.199985e+00	-8.052082e-05	-1.441715e-04	1.199499e+00	-4.002364e-05	1.200205e+00	1.200569e+00	3.634912e-01	1.200096e+00	
45	3.320000e-10	1.200000e+00	1.199981e+00	1.199910e+00	1.199249e+00	1.199990e+00	-5.726164e-05	-1.019211e-04	1.199117e+00	-2.920764e-05	1.200200e+00	1.200414e+00	3.197947e-01	1.200106e+00	
46	3.400000e-10	1.200000e+00	1.199982e+00	1.199919e+00	1.199602e+00	1.199991e+00	-5.484176e-05	-9.251983e-05	1.199567e+00	-2.688064e-05	1.200094e+00	1.200152e+00	2.466316e-01	1.200043e+00	
47	3.500000e-10	1.200000e+00	1.199988e+00	1.199946e+00	1.199564e+00	1.199994e+00	-3.763827e-05	-6.306831e-05	1.199467e+00	-1.945279e-05	1.200028e+00	1.200060e+00	1.774241e-01	1.200019e+00	
48	3.600000e-10	1.200000e+00	1.199990e+00	1.199957e+00	1.199791e+00	1.199996e+00	-3.119826e-05	-5.028431e-05	1.199765e+00	-1.502121e-05	1.200012e+00	1.200008e+00	1.276001e-01	1.200001e+00	
49	3.700000e-10	1.200000e+00	1.199994e+00	1.199972e+00	1.199769e+00	1.199996e+00	-2.040934e-05	-3.363391e-05	1.199709e+00	-1.083523e-05	1.200005e+00	1.200021e+00	9.180638e-02	1.200007e+00	
50	3.800000e-10	1.200000e+00	1.199995e+00	1.199978e+00	1.199895e+00	1.199998e+00	-1.643187e-05	-2.585887e-05	1.199880e+00	-7.625738e-06	1.200002e+00	1.199993e+00	6.600072e-02	1.199997e+00	
51	3.900000e-10	1.200000e+00	1.199997e+00	1.199986e+00	1.199878e+00	1.199998e+00	-1.056455e-05	-1.762182e-05	1.199843e+00	-5.894251e-06	1.200002e+00	1.200015e+00	4.748004e-02	1.200005e+00	
52	4.000000e-10	1.200000e+00	1.199998e+00	1.199989e+00	1.199947e+00	1.199999e+00	-8.451700e-06	-1.303764e-05	1.199939e+00	-3.642198e-06	1.200000e+00	1.199990e+00	3.414308e-02	1.199996e+00	
53	4.100000e-10	1.200000e+00	1.199998e+00	1.199993e+00	1.199936e+00	1.199999e+00	-5.332695e-06	-9.285333e-06	1.199915e+00	-3.254870e-06	1.200001e+00	1.200013e+00	2.458440e-02	1.200004e+00	
54	4.200000e-10	1.200000e+00	1.199999e+00	1.199994e+00	1.199973e+00	1.200000e+00	-4.256316e-06	-6.388525e-06	1.199968e+00	-1.560938e-06	1.200000e+00	1.199989e+00	1.770641e-02	1.199996e+00	
55	4.300000e-10	1.200000e+00	1.199999e+00	1.199996e+00	1.199965e+00	1.199999e+00	-2.610870e-06	-4.981244e-06	1.199953e+00	-1.868783e-06	1.200001e+00	1.200012e+00	1.278119e-02	1.200004e+00	
56	4.400000e-10	1.200000e+00	1.200000e+00	1.199997e+00	1.199986e+00	1.200000e+00	-2.080522e-06	-2.961173e-06	1.199982e+00	-4.941992e-07	1.199999e+00	1.199989e+00	9.238229e-03	1.199996e+00	
57	4.500000e-10	1.200000e+00	1.199999e+00	1.199998e+00	1.199981e+00	1.199999e+00	-1.202553e-06	-2.762379e-06	1.199973e+00	-1.139226e-06	1.200001e+00	1.200012e+00	6.702942e-03	1.200003e+00	
58	4.600000e-10	1.200000e+00	1.200000e+00	1.199999e+00	1.199992e+00	1.200000e+00	-9.548863e-07	-1.196808e-06	1.199989e+00	4.560636e-08	1.199999e+00	1.199989e+00	4.878726e-03	1.199997e+00	
59	4.700000e-10	1.200000e+00	1.200000e+00	1.199999e+00	1.199989e+00	1.199999e+00	-4.751205e-07	-1.616159e-06	1.199984e+00	-7.505967e-07	1.200000e+00	1.200011e+00	3.574577e-03	1.200003e+00	
60	4.800000e-10	1.200000e+00	1.200000e+00	1.199999e+00	1.199995e+00	1.200000e+00	-3.754960e-07	-2.931455e-07	1.199993e+00	3.119262e-07	1.199999e+00	1.199989e+00	2.635282e-03	1.199997e+00	
61	4.900000e-10	1.200000e+00	1.200000e+00	1.199999e+00	1.199993e+00	1.199999e+00	-9.853788e-08	-1.020527e-06	1.199989e+00	-5.382513e-07	1.200000e+00	1.200010e+00	1.964923e-03	1.200003e+00	
62	5.000000e-10	1.200000e+00	1.200000e+00	1.200000e+00	1.199997e+00	1.200000e+00	-7.920705e-08	1.655465e-07	1.199994e+00	4.371126e-07	1.199999e+00	1.199990e+00	1.481008e-03	1.199997e+00	
63	5.100000e-10	1.200000e+00	1.200000e+00	1.200000e+00	1.199996e+00	1.200000e+00	9.780203e-08	-7.071941e-07	1.199992e+00	-4.170729e-07	1.200000e+00	1.200010e+00	1.136824e-03	1.200003e+00	
64	5.200000e-10	1.200000e+00	1.200000e+00	1.200000e+00	1.199998e+00	1.200000e+00	7.063974e-08	3.943573e-07	1.199995e+00	4.898879e-07	1.199999e+00	1.199990e+00	8.871807e-04	1.199997e+00	
65	5.300000e-10	1.200000e+00	1.200000e+00	1.200000e+00	1.199997e+00	1.200000e+00	2.016550e-07	-5.385784e-07	1.199994e+00	-3.432628e-07	1.200000e+00	1.200010e+00	7.108377e-04	1.200002e+00	
66	5.400000e-10	1.200000e+00	1.200000e+00	1.200000e+00	1.199998e+00	1.200000e+00	1.448476e-07	5.045214e-07	1.199995e+00	5.058358e-07	1.199999e+00	1.199990e+00	5.816947e-04	1.199998e+00	
67	5.500000e-10	1.200000e+00	1.200000e+00	1.200000e+00	1.199998e+00	1.200000e+00	2.580353e-07	-4.442239e-07	1.199995e+00	-2.943315e-07	1.200000e+00	1.200009e+00	4.917128e-04	1.200002e+00	
68	5.600000e-10	1.200000e+00	1.200000e+00	1.200000e+00	1.199998e+00	1.200000e+00	1.800643e-07	5.535657e-07	1.199996e+00	5.033496e-07	1.200000e+00	1.199991e+00	4.245459e-04	1.199998e+00	
69	5.700000e-10	1.200000e+00	1.200000e+00	1.200000e+00	1.199998e+00	1.200000e+00	2.899946e-07	-3.880853e-07	1.199995e+00	-2.587362e-07	1.200000e+00	1.200009e+00	3.789978e-04	1.200002e+00	
70	5.800000e-10	1.200000e+00	1.200000e+00	1.200000e+00	1.199998e+00	1.200000e+00	1.952520e-07	5.712464e-07	1.199996e+00	4.919192e-07	1.200000e+00	1.199991e+00	3.437077e-04	1.199998e+00	
71	5.900000e-10	1.200000e+00	1.200000e+00	1.200000e+00	1.199998e+00	1.200000e+00	3.093264e-07	-3.517340e-07	1.199995e+00	-2.305444e-07	1.200000e+00	1.200008e+00	3.210173e-04	1.200002e+00	
72	6.000000e-10	1.200000e+00	1.200000e+00	1.200000e+00	1.199998e+00	1.200000e+00	2.002207e-07	5.729575e-07	1.199996e+00	4.764270e-07	1.200000e+00	1.199991e+00	3.021268e-04	1.199998e+00	
73	6.100000e-10	1.200000e+00	1.200000e+00	1.200000e+00	1.199998e+00	1.200000e+00	3.220613e-07	-3.257517e-07	1.199996e+00	-2.066951e-07	1.200000e+00	1.200008e+00	2.911895e-04	1.200002e+00	
74	6.200000e-10	1.200000e+00	1.200000e+00	1.200000e+00	1.199998e+00	1.200000e+00	2.000439e-07	5.666622e-07	1.199996e+00	4.593713e-07	1.200000e+00	1.199992e+00	2.807422e-04	1.199998e+00	
75	6.300000e-10	1.200000e+00	1.200000e+00	1.200000e+00	1.199998e+00	1.200000e+00	3.312841e-07	-3.053240e-07	1.199996e+00	-1.855961e-07	1.200000e+00	1.200008e+00	2.758410e-04	1.200001e+00	
76	6.400000e-10	1.200000e+00	1.200000e+00	1.200000e+00	1.199998e+00	1.200000e+00	1.973436e-07	5.564775e-07	1.199996e+00	4.420171e-07	1.200000e+00	1.199992e+00	2.697482e-04	1.199998e+00	
77	6.500000e-10	1.200000e+00	1.200000e+00	1.200000e+00	1.199998e+00	1.200000e+00	3.385744e-07	-2.879876e-07	1.199996e+00	-1.664066e-07	1.200000e+00	1.200008e+00	2.679391e-04	1.200001e+00	
78	6.600000e-10	1.200000e+00	1.200000e+00	1.200000e+00	1.199998e+00	1.200000e+00	1.934719e-07	5.445285e-07	1.199996e+00	4.249923e-07	1.200000e+00	1.199992e+00	2.641004e-04	1.199998e+00	
79	6.700000e-10	1.200000e+00	1.200000e+00	1.200000e+00	1.199998e+00	1.200000e+00	3.447438e-07	-2.724782e-07	1.199996e+00	-1.486701e-07	1.200000e+00	1.200007e+00	2.638666e-04	1.200001e+00	
80	6.800000e-10	1.200000e+00	1.200000e+00	1.200000e+00	1.199998e+00	1.200000e+00	1.891238e-07	5.319081e-07	1.199996e+00	4.085957e-07	1.200000e+00	1.199993e+00	2.612036e-04	1.199999e+00	
81	6.900000e-10	1.200000e+00	1.200000e+00	1.200000e+00	1.199998e+00	1.200000e+00	3.502118e-07	-2.581431e-07	1.199996e+00	-1.321277e-07	1.200000e+00	1.200007e+00	2.617630e-04	1.200001e+00	
82	7.000000e-10	1.200000e+00	1.200000e+00	1.200000e+00	1.199998e+00	1.200000e+00	1.846535e-07	5.191745e-07	1.199996e+00	3.929569e-07	1.200000e+00	1.199993e+00	2.597225e-04	1.199999e+00	
83	7.100000e-10	1.200000e+00	1.200000e+00	1.200000e+00	1.199998e+00	1.200000e+00	3.551986e-07	-2.446412e-07	1.199996e+00	-1.166224e-07	1.200000e+00	1.200007e+00	2.606717e-04	1.200001e+00	
84	7.200000e-10	1.200000e+00	1.200000e+00	1.200000e+00	1.199998e+00	1.200000e+00	1.802385e-07	5.066083e-07	1.199996e+00	3.781191e-07	1.200000e+00	1.199993e+00	2.589700e-04	1.199999e+00	
85	7.300000e-10	1.200000e+00	1.200000e+00	1.200000e+00	1.199998e+00	1.200000e+00	3.598219e-07	-2.317900e-07	1.199996e+00	-1.020503e-07	1.200000e+00	1.200006e+00	2.601008e-04	1.200001e+00	
86	7.400000e-10	1.200000e+00	1.200000e+00	1.200000e+00	1.199998e+00	1.200000e+00	1.759653e-07	4.943468e-07	1.199996e+00	3.640818e-07	1.200000e+00	1.199993e+00	2.585925e-04	1.199999e+00	
87	7.500000e-10	1.200000e+00	1.200000e+00	1.200000e+00	1.199998e+00	1.200000e+00	3.641476e-07	-2.194883e-07	1.199996e+00	-8.833576e-08	1.200000e+00	1.200006e+00	2.597975e-04	1.200001e+00	
88	7.600000e-10	1.200000e+00	1.200000e+00	1.200000e+00	1.199998e+00	1.200000e+00	1.718731e-07	4.824528e-07	1.199996e+00	3.508232e-07	1.200000e+00	1.199994e+00	2.584081e-04	1.199999e+00	
89	7.700000e-10	1.200000e+00	1.200000e+00	1.200000e+00	1.199998e+00	1.200000e+00	3.682148e-07	-2.076761e-07	1.199996e+00	-7.541888e-08	1.200000e+00	1.200006e+00	2.596318e-04	1.200001e+00	
90	7.800000e-10	1.200000e+00	1.200000e+00	1.200000e+00	1.199998e+00	1.200000e+00	1.679767e-07	4.709508e-07	1.199996e+00	3.383116e-07	1.200000e+00	1.199994e+00	2.583229e-04	1.199999e+00	
91	7.900000e-10	1.200000e+00	1.200000e+00	1.200000e+00	1.199998e+00	1.200000e+00	3.720487e-07	-1.963147e-07	1.199996e+00	-6.324881e-08	1.199999e+00	1.200006e+00	2.595369e-04	1.200001e+00	
92	8.000000e-10	1.200000e+00	1.200000e+00	1.200000e+00	1.199998e+00	1.200000e+00	1.642789e-07	4.598457e-07	1.199996e+00	3.265110e-07	1.200000e+00	1.199994e+00	2.582886e-04	1.199999e+00	
93	8.100000e-10	1.200000e+00	1.200000e+00	1.200000e+00	1.199998e+00	1.200000e+00	3.756674e-07	-1.853767e-07	1.199996e+00	-5.178044e-08	1.199999e+00	1.200006e+00	2.594786e-04	1.200001e+00	
94	8.200000e-10	1.200000e+00	1.200000e+00	1.200000e+00	1.199998e+00	1.200000e+00	1.607760e-07	4.491325e-07	1.199996e+00	3.153847e-07	1.200000e+00	1.199994e+00	2.582805e-04	1.199999e+00	
95	8.300000e-10	1.200000e+00	1.200000e+00	1.200000e+00	1.199998e+00	1.200000e+00	3.790850e-07	-1.748405e-07	1.199996e+00	-4.097266e-08	1.199999e+00	1.200005e+00	2.594392e-04	1.200001e+00	
96	8.400000e-10	1.200000e+00	1.200000e+00	1.200000e+00	1.199998e+00	1.200000e+00	1.574616e-07	4.388012e-07	1.199996e+00	3.048963e-07	1.200000e+00	1.199994e+00	2.582855e-04	1.199999e+00	
