
Circuit: * spice from s1000s

Doing analysis at TEMP = 75.000000 and TNOM = 27.000000


Initial Transient Solution
--------------------------

Node                                   Voltage
----                                   -------
n0                                           0
n1                                           0
n4                                         1.2
n2                                           0
n3                                         1.2
nseg_node_5                                  0
nseg_node_6                                  0
gin                                        1.2
vdd                                        1.2
vdt#branch                         1.31316e-07
vdd#branch                        -8.37658e-06


No. of Data Rows : 213

                                                                                                              * spice from s1000s
                                                                                                              Transient Analysis  Fri Feb 20 21:56:54  2009
------------------------------------------------------------------------------------------------------------------------------------------------------------------------------------------------------------------------------------------------
Index   time            gin             m.x0.m1#body    m.x0.m1#dbody   m.x0.m1#gate    m.x0.m1#sbody   m.x0.m2#body    m.x0.m2#dbody   m.x0.m2#gate    m.x0.m2#sbody   m.x1.m1#body    m.x1.m1#dbody   m.x1.m1#gate    m.x1.m1#sbody   
------------------------------------------------------------------------------------------------------------------------------------------------------------------------------------------------------------------------------------------------
0	0.000000e+00	1.200000e+00	1.200000e+00	1.200000e+00	1.199998e+00	1.200000e+00	2.690256e-07	1.345128e-07	1.199996e+00	1.345128e-07	1.200000e+00	1.200000e+00	1.107109e-05	1.200000e+00	
1	1.000000e-13	1.200000e+00	1.200001e+00	1.200004e+00	1.200002e+00	1.200000e+00	3.721823e-06	4.568816e-06	1.200000e+00	1.194433e-06	1.199991e+00	1.199989e+00	2.081409e-06	1.199998e+00	
2	2.000000e-13	1.200000e+00	1.200001e+00	1.200004e+00	1.200004e+00	1.200000e+00	3.789435e-06	5.456097e-06	1.200004e+00	1.624372e-06	1.199992e+00	1.199988e+00	-3.794831e-06	1.199997e+00	
3	4.000000e-13	1.200000e+00	1.200001e+00	1.200004e+00	1.200009e+00	1.200001e+00	3.430644e-06	5.320459e-06	1.200009e+00	1.846189e-06	1.199994e+00	1.199989e+00	-1.289345e-05	1.199996e+00	
4	8.000000e-13	1.200000e+00	1.200001e+00	1.200003e+00	1.200013e+00	1.200000e+00	2.498964e-06	3.566316e-06	1.200014e+00	1.292648e-06	1.199996e+00	1.199994e+00	-2.200940e-05	1.199998e+00	
5	1.600000e-12	1.200000e+00	1.200000e+00	1.200002e+00	1.200012e+00	1.200000e+00	1.536576e-06	2.237975e-06	1.200013e+00	8.022175e-07	1.199999e+00	1.199998e+00	-2.428650e-05	1.199999e+00	
6	3.200000e-12	1.200000e+00	1.200000e+00	1.200000e+00	1.200005e+00	1.200000e+00	7.018915e-07	7.316460e-07	1.200004e+00	3.523739e-07	1.200000e+00	1.200000e+00	-1.243734e-05	1.200000e+00	
7	6.400000e-12	1.200000e+00	1.200000e+00	1.200000e+00	1.199999e+00	1.200000e+00	4.136521e-07	4.436413e-07	1.199997e+00	2.109556e-07	1.200000e+00	1.200000e+00	9.695136e-06	1.200000e+00	
8	1.280000e-11	1.200000e+00	1.200000e+00	1.200000e+00	1.199999e+00	1.200000e+00	3.102613e-07	1.184024e-07	1.199997e+00	1.521565e-07	1.200000e+00	1.200000e+00	4.687926e-05	1.200000e+00	
9	2.280000e-11	1.200000e+00	1.200000e+00	1.200000e+00	1.199998e+00	1.200000e+00	3.236460e-07	2.994274e-07	1.199996e+00	1.646402e-07	1.200000e+00	1.200000e+00	1.047625e-04	1.200000e+00	
10	3.280000e-11	1.200000e+00	1.200000e+00	1.200000e+00	1.199999e+00	1.200000e+00	2.790487e-07	7.175742e-08	1.199996e+00	1.370541e-07	1.200000e+00	1.200000e+00	1.487024e-04	1.200000e+00	
11	4.280000e-11	1.200000e+00	1.200000e+00	1.200000e+00	1.199998e+00	1.200000e+00	3.057526e-07	2.692006e-07	1.199996e+00	1.551194e-07	1.200000e+00	1.200000e+00	1.797359e-04	1.200000e+00	
12	5.280000e-11	1.200000e+00	1.200000e+00	1.200000e+00	1.199998e+00	1.200000e+00	2.659769e-07	5.349273e-08	1.199996e+00	1.310481e-07	1.200000e+00	1.200000e+00	2.021647e-04	1.200000e+00	
13	6.280000e-11	1.200000e+00	1.200000e+00	1.200000e+00	1.199998e+00	1.200000e+00	2.960224e-07	2.517928e-07	1.199996e+00	1.497167e-07	1.200000e+00	1.200000e+00	2.181456e-04	1.200000e+00	
14	7.280000e-11	1.200000e+00	1.200000e+00	1.200000e+00	1.199998e+00	1.200000e+00	2.595761e-07	4.562286e-08	1.199996e+00	1.283512e-07	1.200000e+00	1.200000e+00	2.296980e-04	1.200000e+00	
15	8.280000e-11	1.200000e+00	1.200000e+00	1.200000e+00	1.199998e+00	1.200000e+00	2.907114e-07	2.413544e-07	1.199996e+00	1.465635e-07	1.200000e+00	1.200000e+00	2.378927e-04	1.200000e+00	
16	9.280000e-11	1.200000e+00	1.200000e+00	1.200000e+00	1.199998e+00	1.200000e+00	2.565754e-07	4.302240e-08	1.199996e+00	1.273218e-07	1.200000e+00	1.200000e+00	2.438647e-04	1.200000e+00	
17	1.028000e-10	1.200000e+00	1.200000e+00	1.200000e+00	1.199998e+00	1.200000e+00	2.877049e-07	2.345776e-07	1.199996e+00	1.446010e-07	1.200000e+00	1.200000e+00	2.480491e-04	1.200000e+00	
18	1.128000e-10	1.200000e+00	1.200000e+00	1.200000e+00	1.199998e+00	1.200000e+00	2.552908e-07	4.305432e-08	1.199996e+00	1.271167e-07	1.200000e+00	1.200000e+00	2.511522e-04	1.200000e+00	
19	1.228000e-10	1.200000e+00	1.200000e+00	1.200000e+00	1.199998e+00	1.200000e+00	2.859124e-07	2.297555e-07	1.199996e+00	1.432816e-07	1.200000e+00	1.200000e+00	2.532735e-04	1.200000e+00	
20	1.328000e-10	1.200000e+00	1.200000e+00	1.200000e+00	1.199998e+00	1.200000e+00	2.548655e-07	4.437770e-08	1.199996e+00	1.273082e-07	1.200000e+00	1.200000e+00	2.549005e-04	1.200000e+00	
21	1.428000e-10	1.200000e+00	1.200000e+00	1.200000e+00	1.199998e+00	1.200000e+00	2.847633e-07	2.259940e-07	1.199996e+00	1.423174e-07	1.200000e+00	1.200000e+00	2.559613e-04	1.200000e+00	
22	1.528000e-10	1.200000e+00	1.200000e+00	1.200000e+00	1.199998e+00	1.200000e+00	2.548668e-07	4.631616e-08	1.199996e+00	1.276817e-07	1.200000e+00	1.200000e+00	2.568282e-04	1.200000e+00	
23	1.628000e-10	1.200000e+00	1.200000e+00	1.200000e+00	1.199998e+00	1.200000e+00	2.839582e-07	2.228230e-07	1.199996e+00	1.415563e-07	1.200000e+00	1.200000e+00	2.573442e-04	1.200000e+00	
24	1.728000e-10	1.200000e+00	1.200000e+00	1.200000e+00	1.199998e+00	1.200000e+00	2.550762e-07	4.852906e-08	1.199996e+00	1.281297e-07	1.200000e+00	1.200000e+00	2.578194e-04	1.200000e+00	
25	1.828000e-10	1.200000e+00	1.200000e+00	1.200000e+00	1.199998e+00	1.200000e+00	2.833402e-07	2.199955e-07	1.199996e+00	1.409176e-07	1.200000e+00	1.200000e+00	2.580560e-04	1.200000e+00	
26	1.928000e-10	1.200000e+00	1.200000e+00	1.200000e+00	1.199998e+00	1.200000e+00	2.553834e-07	5.084505e-08	1.199996e+00	1.285991e-07	1.200000e+00	1.200000e+00	2.583289e-04	1.200000e+00	
27	2.000000e-10	1.200000e+00	1.200000e+00	1.200000e+00	1.199998e+00	1.200000e+00	2.827561e-07	2.169243e-07	1.199996e+00	1.402669e-07	1.200000e+00	1.200000e+00	2.583844e-04	1.200000e+00	
28	2.010000e-10	1.190400e+00	1.199967e+00	1.199965e+00	1.194805e+00	1.199985e+00	-4.821133e-06	-2.020530e-05	1.194591e+00	-2.259659e-06	1.200000e+00	1.200000e+00	2.574572e-04	1.200000e+00	
29	2.030000e-10	1.171200e+00	1.199940e+00	1.199948e+00	1.179753e+00	1.199970e+00	1.690480e-05	-1.202315e-05	1.179121e+00	7.676697e-06	1.200000e+00	1.200000e+00	2.501793e-04	1.200000e+00	
30	2.070000e-10	1.132800e+00	1.199952e+00	1.199984e+00	1.141304e+00	1.199976e+00	-1.400806e-05	1.710392e-06	1.140425e+00	-5.804476e-06	1.200000e+00	1.200000e+00	1.726512e-04	1.200000e+00	
31	2.150000e-10	1.056000e+00	1.199953e+00	1.199986e+00	1.065155e+00	1.199977e+00	7.222692e-06	1.189182e-05	1.064008e+00	2.284635e-06	1.200000e+00	1.200000e+00	-1.382964e-04	1.200000e+00	
32	2.250000e-10	9.600000e-01	1.199973e+00	1.200052e+00	9.705816e-01	1.199986e+00	5.341205e-05	8.872607e-05	9.680591e-01	2.771295e-05	1.200000e+00	1.200001e+00	3.035727e-04	1.200000e+00	
33	2.350000e-10	8.640000e-01	1.199980e+00	1.200129e+00	8.769799e-01	1.199990e+00	9.284190e-05	1.732308e-04	8.727805e-01	4.519417e-05	1.200000e+00	1.200002e+00	4.112070e-03	1.200000e+00	
34	2.450000e-10	7.680000e-01	1.199996e+00	1.200209e+00	7.817099e-01	1.199998e+00	6.844906e-05	2.252752e-04	7.767837e-01	3.557231e-05	1.199998e+00	1.200002e+00	1.484231e-02	1.199999e+00	
35	2.550000e-10	6.720000e-01	1.200018e+00	1.200325e+00	6.868747e-01	1.200009e+00	2.344632e-05	2.857262e-04	6.810565e-01	1.068832e-05	1.200000e+00	1.200002e+00	3.622129e-02	1.200000e+00	
36	2.650000e-10	5.760000e-01	1.200100e+00	1.200680e+00	5.929294e-01	1.200049e+00	1.060484e-04	5.750754e-04	5.863967e-01	5.352039e-05	1.199999e+00	1.200002e+00	7.326787e-02	1.200000e+00	
37	2.750000e-10	4.800000e-01	1.200193e+00	1.201090e+00	5.011133e-01	1.200096e+00	1.369828e-04	8.140703e-04	4.915608e-01	6.781544e-05	1.200005e+00	1.199992e+00	1.358631e-01	1.200002e+00	
38	2.850000e-10	3.840000e-01	1.200226e+00	1.201228e+00	4.106777e-01	1.200113e+00	1.613468e-04	8.232873e-04	3.932820e-01	8.118127e-05	1.199890e+00	1.199825e+00	2.348898e-01	1.199946e+00	
39	2.950000e-10	2.880000e-01	1.200172e+00	1.201023e+00	3.134836e-01	1.200087e+00	9.512279e-05	6.068887e-04	2.956669e-01	4.747741e-05	1.199664e+00	1.199281e+00	3.673431e-01	1.199833e+00	
40	3.050000e-10	1.920000e-01	1.200070e+00	1.200464e+00	2.130898e-01	1.200035e+00	3.516483e-05	2.527380e-04	1.975151e-01	1.803666e-05	1.199881e+00	1.198574e+00	5.159167e-01	1.199937e+00	
41	3.150000e-10	9.600000e-02	1.200086e+00	1.200317e+00	1.149872e-01	1.200043e+00	-8.671403e-06	1.488908e-04	1.008965e-01	-4.506437e-06	1.199189e+00	1.196688e+00	6.430637e-01	1.199604e+00	
42	3.250000e-10	0.000000e+00	1.200102e+00	1.200210e+00	1.873161e-02	1.200051e+00	-7.975277e-06	7.508107e-05	4.396673e-03	-3.825467e-06	1.200097e+00	1.199478e+00	7.826275e-01	1.200032e+00	
43	3.260000e-10	0.000000e+00	1.200110e+00	1.200236e+00	1.263907e-02	1.200055e+00	1.267398e-05	1.023083e-04	1.616878e-03	5.735779e-06	1.199955e+00	1.199506e+00	7.945153e-01	1.199982e+00	
44	3.280000e-10	0.000000e+00	1.200128e+00	1.200246e+00	4.953018e-03	1.200064e+00	2.864596e-05	1.105418e-04	-1.760301e-05	1.438060e-05	1.199978e+00	1.199627e+00	8.184304e-01	1.199984e+00	
45	3.320000e-10	0.000000e+00	1.200101e+00	1.200187e+00	1.714626e-03	1.200051e+00	1.473394e-05	7.880768e-05	6.752601e-04	7.524892e-06	1.199999e+00	1.199753e+00	8.633078e-01	1.200003e+00	
46	3.400000e-10	0.000000e+00	1.200089e+00	1.200154e+00	1.467908e-03	1.200044e+00	1.681735e-05	6.584398e-05	1.184456e-05	8.239518e-06	1.200008e+00	1.199880e+00	9.376510e-01	1.200000e+00	
47	3.500000e-10	0.000000e+00	1.200066e+00	1.200114e+00	1.091971e-03	1.200034e+00	8.217181e-06	4.540415e-05	4.281892e-04	4.326951e-06	1.200019e+00	1.199964e+00	1.009227e+00	1.200013e+00	
48	3.600000e-10	0.000000e+00	1.200054e+00	1.200088e+00	8.348711e-04	1.200026e+00	9.599814e-06	3.627077e-05	-3.890458e-05	4.578385e-06	1.200017e+00	1.199994e+00	1.061769e+00	1.200005e+00	
49	3.700000e-10	0.000000e+00	1.200037e+00	1.200063e+00	6.167624e-04	1.200020e+00	4.029850e-06	2.402056e-05	2.711495e-04	2.265534e-06	1.200016e+00	1.200000e+00	1.099699e+00	1.200011e+00	
50	3.800000e-10	0.000000e+00	1.200030e+00	1.200047e+00	4.534248e-04	1.200014e+00	5.390568e-06	1.941896e-05	-5.680738e-05	2.442450e-06	1.200011e+00	1.200003e+00	1.127315e+00	1.200002e+00	
51	3.900000e-10	0.000000e+00	1.200019e+00	1.200033e+00	3.347899e-04	1.200011e+00	1.837270e-06	1.233235e-05	1.738008e-04	1.187254e-06	1.200009e+00	1.200001e+00	1.147275e+00	1.200008e+00	
52	4.000000e-10	0.000000e+00	1.200016e+00	1.200025e+00	2.434784e-04	1.200007e+00	3.039533e-06	1.034209e-05	-5.661729e-05	1.250354e-06	1.200006e+00	1.200003e+00	1.161802e+00	1.200000e+00	
53	4.100000e-10	0.000000e+00	1.200010e+00	1.200017e+00	1.824665e-04	1.200006e+00	7.863460e-07	6.300180e-06	1.139683e-04	6.698857e-07	1.200005e+00	1.200000e+00	1.172281e+00	1.200005e+00	
54	4.200000e-10	0.000000e+00	1.200009e+00	1.200013e+00	1.323877e-04	1.200004e+00	1.727657e-06	5.519527e-06	-4.904355e-05	5.881439e-07	1.200003e+00	1.200003e+00	1.179908e+00	1.199999e+00	
55	4.300000e-10	0.000000e+00	1.200005e+00	1.200009e+00	1.015733e-04	1.200003e+00	3.061821e-07	3.208111e-06	7.627963e-05	4.307551e-07	1.200003e+00	1.199999e+00	1.185398e+00	1.200004e+00	
56	4.400000e-10	0.000000e+00	1.200005e+00	1.200007e+00	7.424250e-05	1.200002e+00	9.840553e-07	2.949415e-06	-3.964999e-05	2.170511e-07	1.200002e+00	1.200003e+00	1.189398e+00	1.199998e+00	
57	4.500000e-10	0.000000e+00	1.200002e+00	1.200005e+00	5.887828e-05	1.200002e+00	1.046200e-07	1.636082e-06	5.196239e-05	3.259174e-07	1.200002e+00	1.199998e+00	1.192270e+00	1.200003e+00	
58	4.600000e-10	0.000000e+00	1.200003e+00	1.200003e+00	4.385044e-05	1.200001e+00	5.538824e-07	1.569347e-06	-3.082057e-05	7.340195e-09	1.200001e+00	1.200002e+00	1.194368e+00	1.199998e+00	
59	4.700000e-10	0.000000e+00	1.200000e+00	1.200003e+00	3.636888e-05	1.200001e+00	3.399755e-08	8.443594e-07	3.591526e-05	2.831314e-07	1.200001e+00	1.199998e+00	1.195869e+00	1.200003e+00	
60	4.800000e-10	0.000000e+00	1.200002e+00	1.200002e+00	2.801178e-05	1.200000e+00	2.997337e-07	8.222585e-07	-2.337519e-05	-1.113053e-07	1.200000e+00	1.200002e+00	1.196969e+00	1.199998e+00	
61	4.900000e-10	0.000000e+00	1.200000e+00	1.200001e+00	2.450125e-05	1.200001e+00	2.149792e-08	4.513708e-07	2.511929e-05	2.671616e-07	1.200000e+00	1.199998e+00	1.197753e+00	1.200002e+00	
62	5.000000e-10	0.000000e+00	1.200001e+00	1.200001e+00	1.977865e-05	1.200000e+00	1.463545e-07	4.138501e-07	-1.744047e-05	-1.776415e-07	1.200000e+00	1.200002e+00	1.198330e+00	1.199998e+00	
63	5.100000e-10	0.000000e+00	1.199999e+00	1.200001e+00	1.823636e-05	1.200000e+00	3.200457e-08	2.604148e-07	1.773854e-05	2.613009e-07	1.200000e+00	1.199998e+00	1.198739e+00	1.200002e+00	
64	5.200000e-10	0.000000e+00	1.200001e+00	1.200000e+00	1.551174e-05	1.200000e+00	5.193549e-08	1.880678e-07	-1.286376e-05	-2.133615e-07	1.200000e+00	1.200002e+00	1.199043e+00	1.199998e+00	
65	5.300000e-10	0.000000e+00	1.199999e+00	1.200000e+00	1.492115e-05	1.200000e+00	4.925171e-08	1.705065e-07	1.262676e-05	2.580269e-07	1.200000e+00	1.199998e+00	1.199255e+00	1.200002e+00	
66	5.400000e-10	0.000000e+00	1.200001e+00	1.200000e+00	1.330911e-05	1.200000e+00	-7.160596e-09	6.173990e-08	-9.407199e-06	-2.308335e-07	1.200000e+00	1.200003e+00	1.199415e+00	1.199998e+00	
67	5.500000e-10	0.000000e+00	1.199999e+00	1.200000e+00	1.316042e-05	1.200000e+00	6.623609e-08	1.301488e-07	9.050045e-06	2.542706e-07	1.200000e+00	1.199997e+00	1.199525e+00	1.200002e+00	
68	5.600000e-10	0.000000e+00	1.200001e+00	1.200000e+00	1.217840e-05	1.200000e+00	-4.457319e-08	-9.754991e-09	-6.832276e-06	-2.372576e-07	1.200000e+00	1.200003e+00	1.199610e+00	1.199998e+00	
69	5.700000e-10	0.000000e+00	1.199999e+00	1.200000e+00	1.222047e-05	1.200000e+00	8.037605e-08	1.133479e-07	6.527571e-06	2.490434e-07	1.200000e+00	1.199997e+00	1.199666e+00	1.200001e+00	
70	5.800000e-10	0.000000e+00	1.200001e+00	1.200000e+00	1.160257e-05	1.200000e+00	-6.835538e-08	-5.056114e-08	-4.931907e-06	-2.369215e-07	1.200000e+00	1.200003e+00	1.199712e+00	1.199999e+00	
71	5.900000e-10	0.000000e+00	1.199999e+00	1.200000e+00	1.171515e-05	1.200000e+00	9.109951e-08	1.071833e-07	4.737847e-06	2.422673e-07	1.200000e+00	1.199997e+00	1.199740e+00	1.200001e+00	
72	6.000000e-10	0.000000e+00	1.200001e+00	1.200000e+00	1.131277e-05	1.200000e+00	-8.338083e-08	-7.388598e-08	-3.538358e-06	-2.324381e-07	1.200000e+00	1.200003e+00	1.199765e+00	1.199999e+00	
73	6.100000e-10	0.000000e+00	1.199999e+00	1.200000e+00	1.144093e-05	1.200000e+00	9.866731e-08	1.053831e-07	3.462226e-06	2.342127e-07	1.200000e+00	1.199997e+00	1.199779e+00	1.200001e+00	
74	6.200000e-10	0.000000e+00	1.200000e+00	1.200000e+00	1.116952e-05	1.200000e+00	-9.267452e-08	-8.705370e-08	-2.521022e-06	-2.254358e-07	1.200000e+00	1.200003e+00	1.199793e+00	1.199999e+00	
75	6.300000e-10	0.000000e+00	1.199999e+00	1.200000e+00	1.129028e-05	1.200000e+00	1.036188e-07	1.050171e-07	2.549911e-06	2.252402e-07	1.200000e+00	1.199997e+00	1.199799e+00	1.200001e+00	
76	6.400000e-10	0.000000e+00	1.200000e+00	1.200000e+00	1.110070e-05	1.200000e+00	-9.816069e-08	-9.419418e-08	-1.780647e-06	-2.169502e-07	1.200000e+00	1.200003e+00	1.199808e+00	1.199999e+00	
77	6.500000e-10	0.000000e+00	1.199999e+00	1.200000e+00	1.120620e-05	1.200000e+00	1.065256e-07	1.048046e-07	1.895744e-06	2.156917e-07	1.200000e+00	1.199997e+00	1.199810e+00	1.200001e+00	
78	6.600000e-10	0.000000e+00	1.200000e+00	1.200000e+00	1.106921e-05	1.200000e+00	-1.010914e-07	-9.768237e-08	-1.242995e-06	-2.076507e-07	1.200000e+00	1.200003e+00	1.199815e+00	1.199999e+00	
79	6.700000e-10	0.000000e+00	1.199999e+00	1.200000e+00	1.115833e-05	1.200000e+00	1.078945e-07	1.042568e-07	1.425756e-06	2.058520e-07	1.200000e+00	1.199997e+00	1.199816e+00	1.200001e+00	
80	6.800000e-10	0.000000e+00	1.200000e+00	1.200000e+00	1.105606e-05	1.200000e+00	-1.022976e-07	-9.891465e-08	-8.531322e-07	-1.979750e-07	1.200000e+00	1.200003e+00	1.199819e+00	1.199999e+00	
81	6.900000e-10	0.000000e+00	1.199999e+00	1.200000e+00	1.113041e-05	1.200000e+00	1.081396e-07	1.032485e-07	1.087573e-06	1.959421e-07	1.200000e+00	1.199997e+00	1.199819e+00	1.200001e+00	
82	7.000000e-10	0.000000e+00	1.200000e+00	1.200000e+00	1.105167e-05	1.200000e+00	-1.023401e-07	-9.873201e-08	-5.707010e-07	-1.882112e-07	1.200000e+00	1.200003e+00	1.199821e+00	1.199999e+00	
83	7.100000e-10	0.000000e+00	1.199999e+00	1.200000e+00	1.111364e-05	1.200000e+00	1.075839e-07	1.018074e-07	8.439297e-07	1.861255e-07	1.200000e+00	1.199997e+00	1.199820e+00	1.200001e+00	
84	7.200000e-10	0.000000e+00	1.200000e+00	1.200000e+00	1.105125e-05	1.200000e+00	-1.016019e-07	-9.765346e-08	-3.662085e-07	-1.785484e-07	1.200000e+00	1.200003e+00	1.199822e+00	1.199999e+00	
85	7.300000e-10	0.000000e+00	1.199999e+00	1.200000e+00	1.110325e-05	1.200000e+00	1.064723e-07	1.000150e-07	6.682106e-07	1.765183e-07	1.200000e+00	1.199997e+00	1.199821e+00	1.200001e+00	
86	7.400000e-10	0.000000e+00	1.200000e+00	1.200000e+00	1.105244e-05	1.200000e+00	-1.003477e-07	-9.600702e-08	-2.181775e-07	-1.691093e-07	1.200000e+00	1.200003e+00	1.199823e+00	1.199999e+00	
87	7.500000e-10	0.000000e+00	1.199999e+00	1.200000e+00	1.109657e-05	1.200000e+00	1.049867e-07	9.796130e-08	5.413549e-07	1.671994e-07	1.200000e+00	1.199997e+00	1.199821e+00	1.200001e+00	
88	7.600000e-10	0.000000e+00	1.200000e+00	1.200000e+00	1.105415e-05	1.200000e+00	-9.876098e-08	-9.400449e-08	-1.110089e-07	-1.599720e-07	1.200000e+00	1.200003e+00	1.199823e+00	1.199999e+00	
89	7.700000e-10	0.000000e+00	1.199999e+00	1.200000e+00	1.109211e-05	1.200000e+00	1.032604e-07	9.572751e-08	4.496842e-07	1.582202e-07	1.200000e+00	1.199997e+00	1.199822e+00	1.200001e+00	
90	7.800000e-10	0.000000e+00	1.200000e+00	1.200000e+00	1.105590e-05	1.200000e+00	-9.696977e-08	-9.178520e-08	-3.339346e-08	-1.511838e-07	1.200000e+00	1.200003e+00	1.199823e+00	1.199999e+00	
91	7.900000e-10	0.000000e+00	1.199999e+00	1.200000e+00	1.108902e-05	1.200000e+00	1.013897e-07	9.337993e-08	3.833680e-07	1.496110e-07	1.200000e+00	1.199997e+00	1.199822e+00	1.200001e+00	
92	8.000000e-10	0.000000e+00	1.200000e+00	1.200000e+00	1.105749e-05	1.200000e+00	-9.506324e-08	-8.944209e-08	2.285725e-08	-1.427707e-07	1.200000e+00	1.200003e+00	1.199823e+00	1.199999e+00	
93	8.100000e-10	0.000000e+00	1.199999e+00	1.200000e+00	1.108680e-05	1.200000e+00	9.944347e-08	9.097007e-08	3.353337e-07	1.413873e-07	1.200000e+00	1.199997e+00	1.199822e+00	1.200001e+00	
94	8.200000e-10	0.000000e+00	1.200000e+00	1.200000e+00	1.105886e-05	1.200000e+00	-9.310335e-08	-8.703782e-08	6.366649e-08	-1.347446e-07	1.200000e+00	1.200003e+00	1.199823e+00	1.199999e+00	
95	8.300000e-10	0.000000e+00	1.199999e+00	1.200000e+00	1.108515e-05	1.200000e+00	9.747047e-08	8.853653e-08	3.004884e-07	1.335540e-07	1.200000e+00	1.199997e+00	1.199822e+00	1.200001e+00	
96	8.400000e-10	0.000000e+00	1.200000e+00	1.200000e+00	1.106003e-05	1.200000e+00	-9.113292e-08	-8.461484e-08	9.331611e-08	-1.271072e-07	1.200000e+00	1.200003e+00	1.199823e+00	1.200000e+00	
