
Circuit: * spice from s1000s

Doing analysis at TEMP = 75.000000 and TNOM = 27.000000


Initial Transient Solution
--------------------------

Node                                   Voltage
----                                   -------
n0                                           1
n1                                           1
n4                                           0
n2                                           1
n3                                           0
nseg_node_5                                  1
nseg_node_6                                  1
gin                                          0
vdd                                          1
vdt#branch                                   0
vdd#branch                          -3.086e-06


No. of Data Rows : 213

                                                                                                              * spice from s1000s
                                                                                                              Transient Analysis  Fri Feb 20 21:56:53  2009
------------------------------------------------------------------------------------------------------------------------------------------------------------------------------------------------------------------------------------------------
Index   time            gin             m.x0.m1#body    m.x0.m1#dbody   m.x0.m1#gate    m.x0.m1#sbody   m.x0.m2#body    m.x0.m2#dbody   m.x0.m2#gate    m.x0.m2#sbody   m.x1.m1#body    m.x1.m1#dbody   m.x1.m1#gate    m.x1.m1#sbody   
------------------------------------------------------------------------------------------------------------------------------------------------------------------------------------------------------------------------------------------------
0	0.000000e+00	0.000000e+00	1.000000e+00	1.000000e+00	2.617601e-06	1.000000e+00	2.710698e-12	8.930349e-12	8.525608e-08	1.355349e-12	1.000000e+00	1.000000e+00	9.999992e-01	1.000000e+00	
1	1.000000e-13	0.000000e+00	9.999986e-01	9.999983e-01	1.194663e-06	9.999996e-01	-2.131402e-07	-8.787476e-07	-8.881059e-07	-6.542807e-08	1.000001e+00	1.000005e+00	1.000004e+00	1.000000e+00	
2	2.000000e-13	0.000000e+00	9.999985e-01	9.999978e-01	1.241503e-08	9.999994e-01	-2.399577e-07	-1.000320e-06	-1.544080e-06	-9.891947e-08	1.000001e+00	1.000005e+00	1.000006e+00	1.000000e+00	
3	4.000000e-13	0.000000e+00	9.999986e-01	9.999976e-01	-2.018026e-06	9.999993e-01	-2.203845e-07	-9.346365e-07	-2.457332e-06	-1.187698e-07	1.000001e+00	1.000004e+00	1.000010e+00	1.000001e+00	
4	8.000000e-13	0.000000e+00	9.999989e-01	9.999983e-01	-4.624604e-06	9.999994e-01	-1.464538e-07	-6.613377e-07	-2.907449e-06	-7.759479e-08	1.000000e+00	1.000002e+00	1.000013e+00	1.000000e+00	
5	1.600000e-12	0.000000e+00	9.999993e-01	9.999989e-01	-6.446852e-06	9.999997e-01	-9.418452e-08	-4.425135e-07	-2.212043e-06	-4.746135e-08	1.000000e+00	1.000001e+00	1.000012e+00	1.000000e+00	
6	3.200000e-12	0.000000e+00	9.999997e-01	9.999996e-01	-4.857876e-06	9.999998e-01	-3.419079e-08	-1.594347e-07	-8.263083e-07	-1.896603e-08	1.000000e+00	9.999999e-01	1.000007e+00	1.000000e+00	
7	6.400000e-12	0.000000e+00	9.999999e-01	9.999998e-01	-1.774629e-07	9.999999e-01	-1.748825e-08	-7.904717e-08	-1.714481e-07	-7.330753e-09	1.000000e+00	1.000000e+00	1.000001e+00	1.000000e+00	
8	1.280000e-11	0.000000e+00	9.999999e-01	1.000000e+00	2.252028e-06	1.000000e+00	-1.211600e-09	-5.635101e-09	-2.944065e-08	-2.121532e-09	1.000000e+00	9.999999e-01	9.999876e-01	1.000000e+00	
9	2.280000e-11	0.000000e+00	1.000000e+00	9.999999e-01	2.114269e-06	1.000000e+00	-7.880218e-09	-3.547347e-08	2.169582e-08	-2.420615e-09	1.000000e+00	1.000000e+00	9.999666e-01	1.000000e+00	
10	3.280000e-11	0.000000e+00	1.000000e+00	1.000000e+00	2.409488e-06	1.000000e+00	1.694169e-09	7.648385e-09	3.214308e-08	-6.941219e-10	1.000000e+00	9.999999e-01	9.999502e-01	1.000000e+00	
11	4.280000e-11	0.000000e+00	1.000000e+00	9.999999e-01	2.377564e-06	1.000000e+00	-6.217435e-09	-2.810178e-08	4.962909e-08	-1.556664e-09	1.000000e+00	1.000000e+00	9.999386e-01	1.000000e+00	
12	5.280000e-11	0.000000e+00	1.000000e+00	1.000000e+00	2.491481e-06	1.000000e+00	2.875070e-09	1.307429e-08	5.812449e-08	-1.324296e-10	1.000000e+00	9.999999e-01	9.999300e-01	1.000000e+00	
13	6.280000e-11	0.000000e+00	1.000000e+00	9.999999e-01	2.496711e-06	1.000000e+00	-5.259204e-09	-2.386933e-08	6.511212e-08	-1.048122e-09	1.000000e+00	1.000000e+00	9.999237e-01	1.000000e+00	
14	7.280000e-11	0.000000e+00	1.000000e+00	1.000000e+00	2.547236e-06	1.000000e+00	3.455647e-09	1.576782e-08	7.186233e-08	1.315079e-10	1.000000e+00	9.999999e-01	9.999191e-01	1.000000e+00	
15	8.280000e-11	0.000000e+00	1.000000e+00	1.000000e+00	2.554357e-06	1.000000e+00	-4.699737e-09	-2.141497e-08	7.346948e-08	-7.425608e-10	1.000000e+00	1.000000e+00	9.999158e-01	1.000000e+00	
16	9.280000e-11	0.000000e+00	1.000000e+00	1.000000e+00	2.579805e-06	1.000000e+00	3.716832e-09	1.700659e-08	7.909034e-08	2.387669e-10	1.000000e+00	9.999999e-01	9.999133e-01	1.000000e+00	
17	1.028000e-10	0.000000e+00	1.000000e+00	1.000000e+00	2.583673e-06	1.000000e+00	-4.354162e-09	-1.991331e-08	7.800203e-08	-5.475436e-10	1.000000e+00	1.000000e+00	9.999116e-01	1.000000e+00	
18	1.128000e-10	0.000000e+00	1.000000e+00	1.000000e+00	2.597892e-06	1.000000e+00	3.809908e-09	1.747831e-08	8.288471e-08	2.651956e-10	1.000000e+00	9.999999e-01	9.999103e-01	1.000000e+00	
19	1.228000e-10	0.000000e+00	1.000000e+00	1.000000e+00	2.598920e-06	1.000000e+00	-4.124855e-09	-1.892824e-08	8.046311e-08	-4.141256e-10	1.000000e+00	1.000000e+00	9.999094e-01	1.000000e+00	
20	1.328000e-10	0.000000e+00	1.000000e+00	1.000000e+00	2.607736e-06	1.000000e+00	3.815392e-09	1.754876e-08	8.487235e-08	2.510292e-10	1.000000e+00	9.999999e-01	9.999086e-01	1.000000e+00	
21	1.428000e-10	0.000000e+00	1.000000e+00	1.000000e+00	2.606943e-06	1.000000e+00	-3.959296e-09	-1.822500e-08	8.180417e-08	-3.158519e-10	1.000000e+00	1.000000e+00	9.999082e-01	1.000000e+00	
22	1.528000e-10	0.000000e+00	1.000000e+00	1.000000e+00	2.613037e-06	1.000000e+00	3.775724e-09	1.741070e-08	8.590654e-08	2.173604e-10	1.000000e+00	9.999999e-01	9.999078e-01	1.000000e+00	
23	1.628000e-10	0.000000e+00	1.000000e+00	1.000000e+00	2.611198e-06	1.000000e+00	-3.829097e-09	-1.767665e-08	8.254250e-08	-2.383162e-10	1.000000e+00	1.000000e+00	9.999075e-01	1.000000e+00	
24	1.728000e-10	0.000000e+00	1.000000e+00	1.000000e+00	2.615866e-06	1.000000e+00	3.713239e-09	1.716562e-08	8.643547e-08	1.751872e-10	1.000000e+00	9.999999e-01	9.999073e-01	1.000000e+00	
25	1.828000e-10	0.000000e+00	1.000000e+00	1.000000e+00	2.613475e-06	1.000000e+00	-3.718914e-09	-1.721468e-08	8.295808e-08	-1.736380e-10	1.000000e+00	1.000000e+00	9.999072e-01	1.000000e+00	
26	1.928000e-10	0.000000e+00	1.000000e+00	1.000000e+00	2.617360e-06	1.000000e+00	3.639693e-09	1.686704e-08	8.669557e-08	1.302063e-10	1.000000e+00	9.999999e-01	9.999070e-01	1.000000e+00	
27	2.000000e-10	0.000000e+00	1.000000e+00	1.000000e+00	2.614596e-06	1.000000e+00	-3.604857e-09	-1.673752e-08	8.318655e-08	-1.086166e-10	1.000000e+00	1.000000e+00	9.999070e-01	1.000000e+00	
28	2.010000e-10	8.000000e-03	9.999992e-01	1.000022e+00	3.090811e-03	9.999996e-01	2.527761e-05	2.406574e-05	5.693342e-03	1.189109e-05	1.000000e+00	1.000000e+00	9.999081e-01	1.000000e+00	
29	2.030000e-10	2.400000e-02	9.999866e-01	1.000024e+00	1.294686e-02	9.999938e-01	3.938473e-05	3.552865e-05	2.032936e-02	1.993433e-05	1.000000e+00	1.000000e+00	9.999168e-01	1.000000e+00	
30	2.070000e-10	5.600000e-02	1.000006e+00	1.000004e+00	4.241194e-02	1.000002e+00	2.847444e-05	1.506291e-05	5.288283e-02	1.417630e-05	1.000000e+00	1.000000e+00	1.000012e+00	1.000000e+00	
31	2.150000e-10	1.200000e-01	9.999958e-01	9.999979e-01	1.063801e-01	9.999988e-01	3.189948e-05	1.569623e-05	1.162974e-01	1.598227e-05	1.000000e+00	1.000000e+00	1.000508e+00	1.000000e+00	
32	2.250000e-10	2.000000e-01	1.000012e+00	9.999826e-01	1.862206e-01	1.000005e+00	2.350400e-05	-2.177038e-07	1.965144e-01	1.177241e-05	1.000000e+00	9.999999e-01	1.001051e+00	1.000000e+00	
33	2.350000e-10	2.800000e-01	9.999188e-01	9.998871e-01	2.658789e-01	9.999613e-01	1.925165e-05	-2.866966e-05	2.756756e-01	9.632328e-06	9.999990e-01	9.999992e-01	1.000329e+00	9.999995e-01	
34	2.450000e-10	3.600000e-01	9.999199e-01	9.997661e-01	3.449322e-01	9.999581e-01	2.937594e-06	-1.003607e-04	3.550127e-01	1.563763e-06	9.999960e-01	9.999971e-01	9.961573e-01	9.999980e-01	
35	2.550000e-10	4.400000e-01	9.999183e-01	9.996087e-01	4.241610e-01	9.999610e-01	-1.395693e-05	-1.978134e-04	4.341742e-01	-6.966161e-06	9.999901e-01	9.999934e-01	9.842756e-01	9.999951e-01	
36	2.650000e-10	5.200000e-01	9.999063e-01	9.993341e-01	5.024443e-01	9.999516e-01	-5.649013e-05	-3.799984e-04	5.133851e-01	-2.799294e-05	9.999799e-01	9.999874e-01	9.579571e-01	9.999900e-01	
37	2.750000e-10	6.000000e-01	9.998004e-01	9.990263e-01	5.805191e-01	9.999027e-01	-1.011296e-04	-5.898720e-04	5.917788e-01	-5.053347e-05	9.999653e-01	9.999806e-01	9.081205e-01	9.999827e-01	
38	2.850000e-10	6.800000e-01	9.998244e-01	9.989630e-01	6.625474e-01	9.999096e-01	-1.309927e-04	-7.120962e-04	6.697390e-01	-6.534146e-05	9.999540e-01	9.999913e-01	8.264734e-01	9.999770e-01	
39	2.950000e-10	7.600000e-01	9.997955e-01	9.990087e-01	7.457786e-01	9.999005e-01	-1.348032e-04	-7.408556e-04	7.492918e-01	-6.752899e-05	9.999739e-01	1.000119e+00	7.143418e-01	9.999867e-01	
40	3.050000e-10	8.400000e-01	9.999722e-01	9.996216e-01	8.290987e-01	9.999818e-01	-5.382675e-05	-3.357744e-04	8.315013e-01	-2.729201e-05	1.000066e+00	1.000623e+00	5.857923e-01	1.000032e+00	
41	3.150000e-10	9.200000e-01	9.999747e-01	9.997973e-01	9.116551e-01	9.999915e-01	-4.084503e-05	-1.714195e-04	9.127083e-01	-2.013389e-05	1.000590e+00	1.002821e+00	4.745997e-01	1.000291e+00	
42	3.250000e-10	1.000000e+00	1.000040e+00	9.999171e-01	9.918944e-01	1.000015e+00	-5.114311e-05	-1.235305e-04	9.927549e-01	-2.578906e-05	1.000413e+00	1.002007e+00	3.841579e-01	1.000212e+00	
43	3.260000e-10	1.000000e+00	9.999929e-01	9.998787e-01	9.957623e-01	9.999980e-01	-5.872037e-05	-1.319486e-04	9.963294e-01	-2.914892e-05	1.000303e+00	1.001492e+00	3.709361e-01	1.000156e+00	
44	3.280000e-10	1.000000e+00	9.999702e-01	9.998713e-01	9.994231e-01	9.999847e-01	-6.598392e-05	-1.306873e-04	9.995134e-01	-3.296338e-05	1.000212e+00	1.000784e+00	3.452468e-01	1.000106e+00	
45	3.320000e-10	1.000000e+00	9.999813e-01	9.999121e-01	9.993151e-01	9.999907e-01	-4.673504e-05	-9.240323e-05	9.992351e-01	-2.368773e-05	1.000148e+00	1.000363e+00	3.004576e-01	1.000076e+00	
46	3.400000e-10	1.000000e+00	9.999813e-01	9.999181e-01	9.995893e-01	9.999906e-01	-4.832028e-05	-8.704338e-05	9.995882e-01	-2.383758e-05	1.000068e+00	1.000107e+00	2.306200e-01	1.000033e+00	
47	3.500000e-10	1.000000e+00	9.999881e-01	9.999445e-01	9.995763e-01	9.999941e-01	-3.476383e-05	-6.196615e-05	9.995035e-01	-1.778065e-05	1.000007e+00	1.000032e+00	1.664547e-01	1.000005e+00	
48	3.600000e-10	1.000000e+00	9.999900e-01	9.999562e-01	9.997809e-01	9.999950e-01	-2.898970e-05	-4.821435e-05	9.997693e-01	-1.414188e-05	1.000018e+00	1.000012e+00	1.203702e-01	1.000008e+00	
49	3.700000e-10	1.000000e+00	9.999939e-01	9.999716e-01	9.997786e-01	9.999970e-01	-1.910157e-05	-3.296863e-05	9.997314e-01	-9.956396e-06	9.999927e-01	1.000007e+00	8.692022e-02	9.999979e-01	
50	3.800000e-10	1.000000e+00	9.999948e-01	9.999773e-01	9.998886e-01	9.999974e-01	-1.585760e-05	-2.516493e-05	9.998816e-01	-7.553410e-06	1.000013e+00	1.000004e+00	6.278031e-02	1.000005e+00	
51	3.900000e-10	1.000000e+00	9.999969e-01	9.999855e-01	9.998840e-01	9.999984e-01	-9.976709e-06	-1.737294e-05	9.998566e-01	-5.390939e-06	9.999902e-01	1.000003e+00	4.529053e-02	9.999970e-01	
52	4.000000e-10	1.000000e+00	9.999973e-01	9.999882e-01	9.999431e-01	9.999987e-01	-8.547066e-06	-1.294299e-05	9.999401e-01	-3.889827e-06	1.000012e+00	1.000002e+00	3.269714e-02	1.000004e+00	
53	4.100000e-10	1.000000e+00	9.999984e-01	9.999926e-01	9.999389e-01	9.999992e-01	-5.033921e-06	-9.196817e-06	9.999236e-01	-2.912952e-06	9.999894e-01	1.000001e+00	2.358295e-02	9.999968e-01	
54	4.200000e-10	1.000000e+00	9.999986e-01	9.999938e-01	9.999707e-01	9.999993e-01	-4.652639e-06	-6.550769e-06	9.999698e-01	-1.942532e-06	1.000012e+00	1.000001e+00	1.703166e-02	1.000004e+00	
55	4.300000e-10	1.000000e+00	9.999992e-01	9.999963e-01	9.999675e-01	9.999996e-01	-2.437217e-06	-4.953265e-06	9.999592e-01	-1.606621e-06	9.999890e-01	1.000000e+00	1.229117e-02	9.999969e-01	
56	4.400000e-10	1.000000e+00	9.999993e-01	9.999967e-01	9.999847e-01	9.999997e-01	-2.599989e-06	-3.220437e-06	9.999848e-01	-9.206097e-07	1.000012e+00	1.000001e+00	8.888650e-03	1.000003e+00	
57	4.500000e-10	1.000000e+00	9.999996e-01	9.999981e-01	9.999825e-01	9.999998e-01	-1.078203e-06	-2.746028e-06	9.999781e-01	-9.185129e-07	9.999888e-01	9.999996e-01	6.425043e-03	9.999970e-01	
58	4.600000e-10	1.000000e+00	9.999996e-01	9.999982e-01	9.999919e-01	9.999998e-01	-1.525994e-06	-1.490470e-06	9.999923e-01	-3.902293e-07	1.000011e+00	1.000001e+00	4.659687e-03	1.000003e+00	
59	4.700000e-10	1.000000e+00	9.999998e-01	9.999991e-01	9.999904e-01	9.999999e-01	-3.702584e-07	-1.597185e-06	9.999881e-01	-5.558144e-07	9.999887e-01	9.999994e-01	3.379633e-03	9.999972e-01	
60	4.800000e-10	1.000000e+00	9.999998e-01	9.999990e-01	9.999955e-01	9.999999e-01	-9.665291e-07	-5.951462e-07	9.999960e-01	-1.180842e-07	1.000011e+00	1.000001e+00	2.464418e-03	1.000003e+00	
61	4.900000e-10	1.000000e+00	9.999999e-01	9.999996e-01	9.999946e-01	9.999999e-01	-1.851136e-09	-9.970539e-07	9.999935e-01	-3.630255e-07	9.999887e-01	9.999993e-01	1.799187e-03	9.999974e-01	
62	5.000000e-10	1.000000e+00	9.999999e-01	9.999994e-01	9.999973e-01	1.000000e+00	-6.761959e-07	-1.345997e-07	9.999978e-01	1.919517e-08	1.000011e+00	1.000001e+00	1.325088e-03	1.000003e+00	
63	5.100000e-10	1.000000e+00	9.999999e-01	9.999999e-01	9.999967e-01	1.000000e+00	1.902248e-07	-6.810663e-07	9.999963e-01	-2.586861e-07	9.999887e-01	9.999992e-01	9.791776e-04	9.999976e-01	
64	5.200000e-10	1.000000e+00	9.999999e-01	9.999996e-01	9.999982e-01	1.000000e+00	-5.262738e-07	9.962768e-08	9.999987e-01	8.632273e-08	1.000011e+00	1.000001e+00	7.338288e-04	1.000002e+00	
65	5.300000e-10	1.000000e+00	1.000000e+00	1.000000e+00	9.999979e-01	1.000000e+00	2.909084e-07	-5.121730e-07	9.999978e-01	-2.003996e-07	9.999887e-01	9.999992e-01	5.537824e-04	9.999978e-01	
66	5.400000e-10	1.000000e+00	1.000000e+00	9.999998e-01	9.999987e-01	1.000000e+00	-4.494957e-07	2.161380e-07	9.999992e-01	1.171129e-07	1.000011e+00	1.000001e+00	4.269912e-04	1.000002e+00	
67	5.500000e-10	1.000000e+00	1.000000e+00	1.000000e+00	9.999985e-01	1.000000e+00	3.442523e-07	-4.194673e-07	9.999986e-01	-1.661720e-07	9.999888e-01	9.999992e-01	3.331311e-04	9.999979e-01	
68	5.600000e-10	1.000000e+00	1.000000e+00	9.999998e-01	9.999989e-01	1.000000e+00	-4.107689e-07	2.714999e-07	9.999994e-01	1.291991e-07	1.000011e+00	1.000001e+00	2.677438e-04	1.000002e+00	
69	5.700000e-10	1.000000e+00	1.000000e+00	1.000000e+00	9.999988e-01	1.000000e+00	3.730598e-07	-3.662925e-07	9.999991e-01	-1.446103e-07	9.999888e-01	9.999992e-01	2.186981e-04	9.999981e-01	
70	5.800000e-10	1.000000e+00	1.000000e+00	9.999999e-01	9.999991e-01	1.000000e+00	-3.917999e-07	2.951796e-07	9.999995e-01	1.317645e-07	1.000011e+00	1.000001e+00	1.850830e-04	1.000002e+00	
71	5.900000e-10	1.000000e+00	1.000000e+00	1.000000e+00	9.999990e-01	1.000000e+00	3.891214e-07	-3.337080e-07	9.999993e-01	-1.298142e-07	9.999889e-01	9.999993e-01	1.593644e-04	9.999983e-01	
72	6.000000e-10	1.000000e+00	1.000000e+00	9.999999e-01	9.999991e-01	1.000000e+00	-3.830552e-07	3.025268e-07	9.999995e-01	1.295851e-07	1.000011e+00	1.000001e+00	1.421657e-04	1.000002e+00	
73	6.100000e-10	1.000000e+00	1.000000e+00	1.000000e+00	9.999991e-01	1.000000e+00	3.985298e-07	-3.119301e-07	9.999994e-01	-1.187250e-07	9.999890e-01	9.999993e-01	1.286094e-04	9.999984e-01	
74	6.200000e-10	1.000000e+00	1.000000e+00	9.999999e-01	9.999991e-01	1.000000e+00	-3.795678e-07	3.015369e-07	9.999996e-01	1.251392e-07	1.000011e+00	1.000001e+00	1.198749e-04	1.000001e+00	
75	6.300000e-10	1.000000e+00	1.000000e+00	1.000000e+00	9.999991e-01	1.000000e+00	4.044327e-07	-2.959043e-07	9.999995e-01	-1.097527e-07	9.999890e-01	9.999994e-01	1.126755e-04	9.999986e-01	
76	6.400000e-10	1.000000e+00	1.000000e+00	9.999999e-01	9.999992e-01	1.000000e+00	-3.787506e-07	2.963732e-07	9.999996e-01	1.197081e-07	1.000011e+00	1.000001e+00	1.082906e-04	1.000001e+00	
77	6.500000e-10	1.000000e+00	1.000000e+00	1.000000e+00	9.999991e-01	1.000000e+00	4.084570e-07	-2.830182e-07	9.999995e-01	-1.020658e-07	9.999891e-01	9.999994e-01	1.044263e-04	9.999987e-01	
78	6.600000e-10	1.000000e+00	1.000000e+00	9.999999e-01	9.999992e-01	1.000000e+00	-3.792575e-07	2.892013e-07	9.999996e-01	1.139490e-07	1.000011e+00	1.000001e+00	1.022651e-04	1.000001e+00	
79	6.700000e-10	1.000000e+00	1.000000e+00	1.000000e+00	9.999991e-01	1.000000e+00	4.114446e-07	-2.719188e-07	9.999995e-01	-9.522488e-08	9.999892e-01	9.999995e-01	1.001603e-04	9.999988e-01	
80	6.800000e-10	1.000000e+00	1.000000e+00	9.999999e-01	9.999992e-01	1.000000e+00	-3.803891e-07	2.811452e-07	9.999996e-01	1.081944e-07	1.000011e+00	1.000001e+00	9.912677e-05	1.000001e+00	
81	6.900000e-10	1.000000e+00	1.000000e+00	1.000000e+00	9.999992e-01	1.000000e+00	4.138324e-07	-2.619031e-07	9.999995e-01	-8.899296e-08	9.999892e-01	9.999995e-01	9.795796e-05	9.999989e-01	
82	7.000000e-10	1.000000e+00	1.000000e+00	9.999999e-01	9.999992e-01	1.000000e+00	-3.817836e-07	2.727854e-07	9.999996e-01	1.026078e-07	1.000011e+00	1.000000e+00	9.748881e-05	1.000001e+00	
83	7.100000e-10	1.000000e+00	1.000000e+00	1.000000e+00	9.999992e-01	1.000000e+00	4.158485e-07	-2.526028e-07	9.999995e-01	-8.323813e-08	9.999893e-01	9.999996e-01	9.682408e-05	9.999991e-01	
84	7.200000e-10	1.000000e+00	1.000000e+00	9.999999e-01	9.999992e-01	1.000000e+00	-3.832548e-07	2.644194e-07	9.999996e-01	9.726496e-08	1.000011e+00	1.000000e+00	9.663125e-05	1.000001e+00	
85	7.300000e-10	1.000000e+00	1.000000e+00	1.000000e+00	9.999992e-01	1.000000e+00	4.176135e-07	-2.438227e-07	9.999996e-01	-7.788299e-08	9.999894e-01	9.999996e-01	9.624280e-05	9.999991e-01	
86	7.400000e-10	1.000000e+00	1.000000e+00	9.999999e-01	9.999992e-01	1.000000e+00	-3.847088e-07	2.561965e-07	9.999996e-01	9.219639e-08	1.000011e+00	1.000000e+00	9.618009e-05	1.000001e+00	
87	7.500000e-10	1.000000e+00	1.000000e+00	1.000000e+00	9.999992e-01	1.000000e+00	4.191921e-07	-2.354563e-07	9.999996e-01	-7.287878e-08	9.999894e-01	9.999996e-01	9.594680e-05	9.999992e-01	
88	7.600000e-10	1.000000e+00	1.000000e+00	9.999999e-01	9.999992e-01	1.000000e+00	-3.860991e-07	2.481893e-07	9.999996e-01	8.740950e-08	1.000011e+00	1.000000e+00	9.594103e-05	1.000001e+00	
89	7.700000e-10	1.000000e+00	1.000000e+00	1.000000e+00	9.999992e-01	1.000000e+00	4.206206e-07	-2.274434e-07	9.999996e-01	-6.819190e-08	9.999895e-01	9.999997e-01	9.579774e-05	9.999993e-01	
90	7.800000e-10	1.000000e+00	1.000000e+00	9.999999e-01	9.999992e-01	1.000000e+00	-3.874040e-07	2.404303e-07	9.999996e-01	8.290004e-08	1.000010e+00	1.000000e+00	9.581296e-05	1.000001e+00	
91	7.900000e-10	1.000000e+00	1.000000e+00	1.000000e+00	9.999992e-01	1.000000e+00	4.219202e-07	-2.197477e-07	9.999996e-01	-6.379707e-08	9.999895e-01	9.999997e-01	9.572403e-05	9.999994e-01	
92	8.000000e-10	1.000000e+00	1.000000e+00	9.999999e-01	9.999992e-01	1.000000e+00	-3.886151e-07	2.329311e-07	9.999996e-01	7.865814e-08	1.000010e+00	1.000000e+00	9.574324e-05	1.000001e+00	
93	8.100000e-10	1.000000e+00	1.000000e+00	1.000000e+00	9.999992e-01	1.000000e+00	4.231046e-07	-2.123450e-07	9.999996e-01	-5.967372e-08	9.999896e-01	9.999998e-01	9.568875e-05	9.999995e-01	
94	8.200000e-10	1.000000e+00	1.000000e+00	9.999999e-01	9.999992e-01	1.000000e+00	-3.897301e-07	2.256929e-07	9.999996e-01	7.467145e-08	1.000010e+00	1.000000e+00	9.570442e-05	1.000000e+00	
95	8.300000e-10	1.000000e+00	1.000000e+00	1.000000e+00	9.999992e-01	1.000000e+00	4.241830e-07	-2.052181e-07	9.999996e-01	-5.580414e-08	9.999897e-01	9.999998e-01	9.567282e-05	9.999995e-01	
