
Circuit: * spice from s1000s

Doing analysis at TEMP = 75.000000 and TNOM = 27.000000


Initial Transient Solution
--------------------------

Node                                   Voltage
----                                   -------
n0                                           0
n1                                           0
n4                                           1
n2                                           0
n3                                           1
nseg_node_5                                  0
nseg_node_6                                  0
gin                                          1
vdd                                          1
vdt#branch                                   0
vdd#branch                          -3.086e-06


No. of Data Rows : 214

                                                                                                              * spice from s1000s
                                                                                                              Transient Analysis  Fri Feb 20 21:56:54  2009
------------------------------------------------------------------------------------------------------------------------------------------------------------------------------------------------------------------------------------------------
Index   time            gin             m.x0.m1#body    m.x0.m1#dbody   m.x0.m1#gate    m.x0.m1#sbody   m.x0.m2#body    m.x0.m2#dbody   m.x0.m2#gate    m.x0.m2#sbody   m.x1.m1#body    m.x1.m1#dbody   m.x1.m1#gate    m.x1.m1#sbody   
------------------------------------------------------------------------------------------------------------------------------------------------------------------------------------------------------------------------------------------------
0	0.000000e+00	1.000000e+00	1.000000e+00	1.000000e+00	9.999992e-01	1.000000e+00	1.696921e-08	8.484607e-09	9.999996e-01	8.484607e-09	1.000000e+00	1.000000e+00	2.617601e-06	1.000000e+00	
1	1.000000e-13	1.000000e+00	1.000000e+00	1.000001e+00	1.000000e+00	1.000000e+00	1.251414e-06	1.643026e-06	1.000001e+00	3.874278e-07	9.999954e-01	9.999943e-01	-2.123942e-06	9.999988e-01	
2	2.000000e-13	1.000000e+00	1.000000e+00	1.000002e+00	1.000002e+00	1.000000e+00	1.280647e-06	1.971776e-06	1.000003e+00	5.426929e-07	9.999960e-01	9.999937e-01	-5.243484e-06	9.999984e-01	
3	4.000000e-13	1.000000e+00	1.000000e+00	1.000002e+00	1.000003e+00	1.000000e+00	1.158095e-06	1.927592e-06	1.000005e+00	6.249530e-07	9.999968e-01	9.999944e-01	-1.013274e-05	9.999982e-01	
4	8.000000e-13	1.000000e+00	1.000000e+00	1.000001e+00	1.000005e+00	1.000000e+00	8.297585e-07	1.293184e-06	1.000006e+00	4.302030e-07	9.999980e-01	9.999968e-01	-1.527611e-05	9.999989e-01	
5	1.600000e-12	1.000000e+00	1.000000e+00	1.000001e+00	1.000005e+00	1.000000e+00	4.884886e-07	8.098333e-07	1.000006e+00	2.562638e-07	9.999993e-01	9.999986e-01	-1.716320e-05	9.999996e-01	
6	3.200000e-12	1.000000e+00	1.000000e+00	1.000000e+00	1.000002e+00	1.000000e+00	1.835763e-07	2.472418e-07	1.000003e+00	9.263029e-08	9.999999e-01	1.000000e+00	-1.172989e-05	9.999999e-01	
7	6.400000e-12	1.000000e+00	1.000000e+00	1.000000e+00	9.999996e-01	1.000000e+00	7.218169e-08	1.273700e-07	1.000000e+00	3.741854e-08	1.000000e+00	9.999999e-01	-1.328779e-06	1.000000e+00	
8	1.280000e-11	1.000000e+00	1.000000e+00	1.000000e+00	9.999994e-01	1.000000e+00	3.239675e-08	3.973975e-09	9.999999e-01	1.530521e-08	9.999999e-01	1.000000e+00	1.357371e-05	1.000000e+00	
9	2.280000e-11	1.000000e+00	1.000000e+00	1.000000e+00	9.999993e-01	1.000000e+00	3.805851e-08	7.128525e-08	9.999997e-01	1.986507e-08	1.000000e+00	9.999999e-01	3.572716e-05	1.000000e+00	
10	3.280000e-11	1.000000e+00	1.000000e+00	1.000000e+00	9.999993e-01	1.000000e+00	2.098509e-08	-1.356233e-08	9.999997e-01	9.783514e-09	9.999999e-01	1.000000e+00	5.265701e-05	1.000000e+00	
11	4.280000e-11	1.000000e+00	1.000000e+00	1.000000e+00	9.999992e-01	1.000000e+00	3.101837e-08	5.916342e-08	9.999996e-01	1.613830e-08	1.000000e+00	9.999999e-01	6.462131e-05	1.000000e+00	
12	5.280000e-11	1.000000e+00	1.000000e+00	1.000000e+00	9.999992e-01	1.000000e+00	1.603799e-08	-2.071640e-08	9.999996e-01	7.498533e-09	1.000000e+00	1.000000e+00	7.334233e-05	1.000000e+00	
13	6.280000e-11	1.000000e+00	1.000000e+00	1.000000e+00	9.999992e-01	1.000000e+00	2.723124e-08	5.228688e-08	9.999996e-01	1.405364e-08	1.000000e+00	9.999999e-01	7.955224e-05	1.000000e+00	
14	7.280000e-11	1.000000e+00	1.000000e+00	1.000000e+00	9.999992e-01	1.000000e+00	1.356410e-08	-2.391310e-08	9.999996e-01	6.439780e-09	1.000000e+00	1.000000e+00	8.408716e-05	1.000000e+00	
15	8.280000e-11	1.000000e+00	1.000000e+00	1.000000e+00	9.999992e-01	1.000000e+00	2.516628e-08	4.819720e-08	9.999996e-01	1.284486e-08	1.000000e+00	9.999999e-01	8.729437e-05	1.000000e+00	
16	9.280000e-11	1.000000e+00	1.000000e+00	1.000000e+00	9.999992e-01	1.000000e+00	1.238166e-08	-2.505303e-08	9.999996e-01	6.015001e-09	1.000000e+00	1.000000e+00	8.966307e-05	1.000000e+00	
17	1.028000e-10	1.000000e+00	1.000000e+00	1.000000e+00	9.999992e-01	1.000000e+00	2.399735e-08	4.556718e-08	9.999996e-01	1.209800e-08	1.000000e+00	9.999999e-01	9.131066e-05	1.000000e+00	
18	1.128000e-10	1.000000e+00	1.000000e+00	1.000000e+00	9.999992e-01	1.000000e+00	1.186147e-08	-2.514790e-08	9.999996e-01	5.909237e-09	1.000000e+00	1.000000e+00	9.255590e-05	1.000000e+00	
19	1.228000e-10	1.000000e+00	1.000000e+00	1.000000e+00	9.999992e-01	1.000000e+00	2.330168e-08	4.371732e-08	9.999996e-01	1.160076e-08	1.000000e+00	9.999999e-01	9.339450e-05	1.000000e+00	
20	1.328000e-10	1.000000e+00	1.000000e+00	1.000000e+00	9.999992e-01	1.000000e+00	1.167738e-08	-2.472183e-08	9.999996e-01	5.959709e-09	1.000000e+00	1.000000e+00	9.405649e-05	1.000000e+00	
21	1.428000e-10	1.000000e+00	1.000000e+00	1.000000e+00	9.999992e-01	1.000000e+00	2.285784e-08	4.229141e-08	9.999996e-01	1.124148e-08	1.000000e+00	9.999999e-01	9.447583e-05	1.000000e+00	
22	1.528000e-10	1.000000e+00	1.000000e+00	1.000000e+00	9.999992e-01	1.000000e+00	1.166237e-08	-2.404290e-08	9.999996e-01	6.083494e-09	1.000000e+00	1.000000e+00	9.483480e-05	1.000000e+00	
23	1.628000e-10	1.000000e+00	1.000000e+00	1.000000e+00	9.999992e-01	1.000000e+00	2.254918e-08	4.110150e-08	9.999996e-01	1.096094e-08	1.000000e+00	9.999999e-01	9.503707e-05	1.000000e+00	
24	1.728000e-10	1.000000e+00	1.000000e+00	1.000000e+00	9.999992e-01	1.000000e+00	1.173111e-08	-2.324783e-08	9.999996e-01	6.238593e-09	1.000000e+00	1.000000e+00	9.523837e-05	1.000000e+00	
25	1.828000e-10	1.000000e+00	1.000000e+00	1.000000e+00	9.999992e-01	1.000000e+00	2.231421e-08	4.004829e-08	9.999996e-01	1.072761e-08	1.000000e+00	9.999999e-01	9.532843e-05	1.000000e+00	
26	1.928000e-10	1.000000e+00	1.000000e+00	1.000000e+00	9.999992e-01	1.000000e+00	1.184003e-08	-2.240620e-08	9.999996e-01	6.403881e-09	1.000000e+00	1.000000e+00	9.544756e-05	1.000000e+00	
27	2.000000e-10	1.000000e+00	1.000000e+00	1.000000e+00	9.999992e-01	1.000000e+00	2.209470e-08	3.891189e-08	9.999996e-01	1.049208e-08	1.000000e+00	9.999999e-01	9.546401e-05	1.000000e+00	
28	2.010000e-10	9.920000e-01	9.999721e-01	9.999696e-01	9.956758e-01	9.999872e-01	5.893535e-07	-1.518241e-05	9.954657e-01	2.778650e-07	1.000000e+00	1.000000e+00	9.463746e-05	1.000000e+00	
29	2.030000e-10	9.760000e-01	9.999494e-01	9.999553e-01	9.831373e-01	9.999747e-01	8.314244e-06	-1.337236e-05	9.825365e-01	3.943443e-06	9.999999e-01	9.999999e-01	8.826354e-05	1.000000e+00	
30	2.070000e-10	9.440000e-01	9.999585e-01	9.999836e-01	9.510664e-01	9.999791e-01	-5.881617e-06	1.285143e-06	9.502514e-01	-2.523799e-06	9.999998e-01	9.999997e-01	1.877188e-05	9.999999e-01	
31	2.150000e-10	8.800000e-01	9.999576e-01	9.999784e-01	8.874598e-01	9.999790e-01	3.349441e-06	9.846515e-07	8.865108e-01	1.199187e-06	1.000000e+00	1.000000e+00	-3.284038e-04	1.000000e+00	
32	2.250000e-10	8.000000e-01	9.999669e-01	1.000003e+00	8.078375e-01	9.999832e-01	-2.591699e-06	1.704552e-05	8.063847e-01	-7.952331e-07	1.000000e+00	1.000000e+00	-6.232087e-04	1.000000e+00	
33	2.350000e-10	7.200000e-01	9.999765e-01	1.000045e+00	7.293325e-01	9.999884e-01	5.476819e-05	7.766158e-05	7.267288e-01	2.653971e-05	1.000001e+00	1.000001e+00	2.474025e-04	1.000000e+00	
34	2.450000e-10	6.400000e-01	9.999888e-01	1.000128e+00	6.508378e-01	9.999941e-01	4.402305e-05	1.418204e-04	6.469814e-01	2.290166e-05	9.999991e-01	1.000001e+00	4.185362e-03	9.999996e-01	
35	2.550000e-10	5.600000e-01	1.000015e+00	1.000252e+00	5.719277e-01	1.000008e+00	4.395566e-05	2.336684e-04	5.673107e-01	2.111022e-05	9.999999e-01	1.000003e+00	1.465805e-02	9.999999e-01	
36	2.650000e-10	4.800000e-01	1.000079e+00	1.000547e+00	4.938351e-01	1.000039e+00	6.584505e-05	4.554640e-04	4.882954e-01	3.363265e-05	9.999984e-01	1.000004e+00	3.755694e-02	9.999993e-01	
37	2.750000e-10	4.000000e-01	1.000147e+00	1.000843e+00	4.167196e-01	1.000074e+00	1.305479e-04	6.532428e-04	4.090996e-01	6.417968e-05	9.999997e-01	1.000006e+00	8.212857e-02	9.999998e-01	
38	2.850000e-10	3.200000e-01	1.000168e+00	1.000936e+00	3.403400e-01	1.000084e+00	1.088477e-04	6.470617e-04	3.275932e-01	5.562574e-05	1.000004e+00	9.999912e-01	1.572504e-01	1.000002e+00	
39	2.950000e-10	2.400000e-01	1.000164e+00	1.000929e+00	2.613708e-01	1.000082e+00	1.178803e-04	5.961882e-04	2.462761e-01	5.771205e-05	9.998957e-01	9.997990e-01	2.622695e-01	9.999488e-01	
40	3.050000e-10	1.600000e-01	1.000085e+00	1.000561e+00	1.787644e-01	1.000043e+00	3.375446e-05	3.162312e-04	1.651531e-01	1.859725e-05	9.997527e-01	9.991873e-01	3.824085e-01	9.998767e-01	
41	3.150000e-10	8.000000e-02	1.000053e+00	1.000311e+00	9.624679e-02	1.000026e+00	2.225074e-05	1.764616e-04	8.415787e-02	9.519509e-06	9.996132e-01	9.976027e-01	4.899716e-01	9.998075e-01	
42	3.250000e-10	0.000000e+00	1.000072e+00	1.000218e+00	1.559531e-02	1.000036e+00	-1.925523e-05	8.660352e-05	3.885603e-03	-7.803899e-06	9.994280e-01	9.976634e-01	5.918211e-01	9.997148e-01	
43	3.260000e-10	0.000000e+00	1.000084e+00	1.000232e+00	1.057326e-02	1.000041e+00	1.633807e-05	1.130166e-04	1.495527e-03	7.224080e-06	9.996165e-01	9.980579e-01	6.025945e-01	9.998004e-01	
44	3.280000e-10	0.000000e+00	1.000101e+00	1.000231e+00	4.240271e-03	1.000050e+00	2.881212e-05	1.136060e-04	6.079458e-05	1.487023e-05	9.998817e-01	9.991922e-01	6.260525e-01	9.999363e-01	
45	3.320000e-10	0.000000e+00	1.000080e+00	1.000174e+00	1.557749e-03	1.000041e+00	1.527651e-05	7.995885e-05	6.230723e-04	7.408680e-06	9.999930e-01	9.997503e-01	6.718151e-01	9.999983e-01	
46	3.400000e-10	0.000000e+00	1.000078e+00	1.000151e+00	1.368665e-03	1.000038e+00	1.740715e-05	6.940250e-05	5.941523e-05	8.909555e-06	1.000012e+00	9.999030e-01	7.447885e-01	1.000004e+00	
47	3.483870e-10	0.000000e+00	1.000065e+00	1.000123e+00	1.139729e-03	1.000033e+00	1.007302e-05	5.281700e-05	4.147000e-04	4.890790e-06	1.000023e+00	9.999851e-01	8.033264e-01	1.000013e+00	
48	3.583870e-10	0.000000e+00	1.000055e+00	1.000094e+00	8.784468e-04	1.000027e+00	1.055023e-05	4.128058e-05	1.292844e-05	5.414254e-06	1.000020e+00	9.999973e-01	8.560459e-01	1.000008e+00	
49	3.683870e-10	0.000000e+00	1.000038e+00	1.000069e+00	6.526344e-04	1.000020e+00	5.052726e-06	2.809865e-05	2.567874e-04	2.424820e-06	1.000016e+00	1.000005e+00	8.945070e-01	1.000009e+00	
50	3.783870e-10	0.000000e+00	1.000032e+00	1.000052e+00	4.852576e-04	1.000015e+00	5.954096e-06	2.233349e-05	-2.167178e-05	3.070471e-06	1.000013e+00	1.000004e+00	9.227857e-01	1.000005e+00	
51	3.883870e-10	0.000000e+00	1.000021e+00	1.000037e+00	3.570790e-04	1.000011e+00	2.396518e-06	1.462433e-05	1.611785e-04	1.129249e-06	1.000008e+00	1.000002e+00	9.434936e-01	1.000006e+00	
52	3.983870e-10	0.000000e+00	1.000018e+00	1.000028e+00	2.620985e-04	1.000008e+00	3.400708e-06	1.209356e-05	-3.247312e-05	1.761414e-06	1.000008e+00	1.000004e+00	9.586634e-01	1.000002e+00	
53	4.083870e-10	0.000000e+00	1.000010e+00	1.000020e+00	1.940735e-04	1.000006e+00	1.074429e-06	7.586202e-06	1.036183e-04	4.921171e-07	1.000004e+00	1.000000e+00	9.697689e-01	1.000003e+00	
54	4.183870e-10	0.000000e+00	1.000011e+00	1.000015e+00	1.409606e-04	1.000005e+00	1.976895e-06	6.589016e-06	-3.238207e-05	1.026821e-06	1.000005e+00	1.000003e+00	9.778806e-01	1.000001e+00	
55	4.283870e-10	0.000000e+00	1.000005e+00	1.000010e+00	1.056197e-04	1.000003e+00	4.295466e-07	3.903412e-06	6.804259e-05	1.869624e-07	1.000002e+00	9.999992e-01	9.838238e-01	1.000002e+00	
56	4.383870e-10	0.000000e+00	1.000006e+00	1.000008e+00	7.621347e-05	1.000002e+00	1.172495e-06	3.620736e-06	-2.809972e-05	6.087542e-07	1.000003e+00	1.000003e+00	9.881527e-01	1.000000e+00	
57	4.483870e-10	0.000000e+00	1.000002e+00	1.000006e+00	5.798039e-05	1.000002e+00	1.276980e-07	1.984351e-06	4.553403e-05	4.838965e-08	1.000000e+00	9.999988e-01	9.913293e-01	1.000002e+00	
58	4.583870e-10	0.000000e+00	1.000004e+00	1.000004e+00	4.165965e-05	1.000001e+00	7.099663e-07	2.009338e-06	-2.277858e-05	3.664426e-07	1.000002e+00	1.000002e+00	9.936363e-01	9.999998e-01	
59	4.683870e-10	0.000000e+00	1.000000e+00	1.000003e+00	3.237864e-05	1.000001e+00	-3.904141e-09	9.891366e-07	3.096443e-05	-8.693850e-09	9.999998e-01	9.999987e-01	9.953339e-01	1.000001e+00	
60	4.783870e-10	0.000000e+00	1.000003e+00	1.000002e+00	2.327682e-05	1.000001e+00	4.390120e-07	1.128891e-06	-1.775223e-05	2.233298e-07	1.000002e+00	1.000002e+00	9.965620e-01	9.999996e-01	
61	4.883870e-10	0.000000e+00	9.999996e-01	1.000002e+00	1.863674e-05	1.000001e+00	-5.316820e-08	4.777076e-07	2.134124e-05	-2.725658e-08	9.999995e-01	9.999987e-01	9.974696e-01	1.000001e+00	
62	4.983870e-10	0.000000e+00	1.000002e+00	1.000001e+00	1.351684e-05	1.000000e+00	2.769817e-07	6.439188e-07	-1.349481e-05	1.370964e-07	1.000001e+00	1.000001e+00	9.981224e-01	9.999994e-01	
63	5.083870e-10	0.000000e+00	9.999991e-01	1.000001e+00	1.126057e-05	1.000000e+00	-6.445574e-08	2.185864e-07	1.487241e-05	-2.874778e-08	9.999993e-01	9.999988e-01	9.986083e-01	1.000001e+00	
64	5.183870e-10	0.000000e+00	1.000002e+00	1.000001e+00	8.345034e-06	1.000000e+00	1.779418e-07	3.740730e-07	-1.008813e-05	8.407201e-08	1.000001e+00	1.000001e+00	9.989546e-01	9.999994e-01	
65	5.283870e-10	0.000000e+00	9.999989e-01	1.000001e+00	7.297351e-06	1.000000e+00	-5.971879e-08	9.013080e-08	1.045887e-05	-2.360633e-08	9.999993e-01	9.999990e-01	9.992154e-01	1.000001e+00	
66	5.383870e-10	0.000000e+00	1.000002e+00	1.000000e+00	5.610878e-06	1.000000e+00	1.160358e-07	2.220408e-07	-7.452668e-06	5.082876e-08	1.000001e+00	1.000001e+00	9.993984e-01	9.999994e-01	
67	5.483870e-10	0.000000e+00	9.999988e-01	1.000000e+00	5.163884e-06	1.000000e+00	-4.946704e-08	2.862340e-08	7.410516e-06	-1.669517e-08	9.999993e-01	9.999992e-01	9.995389e-01	1.000001e+00	
68	5.583870e-10	0.000000e+00	1.000001e+00	1.000000e+00	4.169866e-06	1.000000e+00	7.648740e-08	1.350783e-07	-5.457259e-06	2.962286e-08	1.000001e+00	1.000001e+00	9.996351e-01	9.999994e-01	
69	5.683870e-10	0.000000e+00	9.999987e-01	1.000000e+00	4.012135e-06	1.000000e+00	-3.845247e-08	8.698554e-10	5.284237e-06	-1.010576e-08	9.999993e-01	9.999994e-01	9.997113e-01	1.000001e+00	
70	5.783870e-10	0.000000e+00	1.000001e+00	9.999999e-01	3.413599e-06	9.999999e-01	5.070304e-08	8.443802e-08	-3.968027e-06	1.590395e-08	1.000001e+00	1.000001e+00	9.997613e-01	9.999994e-01	
71	5.883870e-10	0.000000e+00	9.999987e-01	1.000000e+00	3.387905e-06	1.000000e+00	-2.859813e-08	-1.028091e-08	3.789536e-06	-4.593720e-09	9.999993e-01	9.999995e-01	9.998032e-01	1.000001e+00	
72	5.983870e-10	0.000000e+00	1.000001e+00	9.999999e-01	3.019046e-06	9.999999e-01	3.358535e-08	5.433992e-08	-2.867508e-06	6.942252e-09	1.000001e+00	1.000000e+00	9.998286e-01	9.999994e-01	
73	6.083870e-10	0.000000e+00	9.999987e-01	1.000000e+00	3.047777e-06	1.000000e+00	-2.049040e-08	-1.358343e-08	2.732431e-06	-3.036533e-10	9.999993e-01	9.999997e-01	9.998522e-01	1.000001e+00	
74	6.183870e-10	0.000000e+00	1.000001e+00	9.999999e-01	2.814939e-06	9.999999e-01	2.204495e-08	3.604412e-08	-2.059866e-06	1.063731e-09	1.000001e+00	1.000000e+00	9.998645e-01	9.999995e-01	
75	6.283870e-10	0.000000e+00	9.999987e-01	1.000000e+00	2.861146e-06	1.000000e+00	-1.412598e-08	-1.342586e-08	1.981316e-06	2.872997e-09	9.999994e-01	9.999998e-01	9.998782e-01	1.000001e+00	
76	6.383870e-10	0.000000e+00	1.000001e+00	9.999998e-01	2.710644e-06	9.999999e-01	1.416692e-08	2.465526e-08	-1.470076e-06	-2.781421e-09	1.000001e+00	1.000000e+00	9.998837e-01	9.999995e-01	
77	6.483870e-10	0.000000e+00	9.999987e-01	1.000000e+00	2.757801e-06	1.000000e+00	-9.275651e-09	-1.194692e-08	1.445714e-06	5.127590e-09	9.999994e-01	1.000000e+00	9.998921e-01	1.000001e+00	
78	6.583870e-10	0.000000e+00	1.000001e+00	9.999998e-01	2.658327e-06	9.999999e-01	8.737373e-09	1.739349e-08	-1.040894e-06	-5.266019e-09	1.000001e+00	1.000000e+00	9.998939e-01	9.999995e-01	
79	6.683870e-10	0.000000e+00	9.999987e-01	1.000000e+00	2.699905e-06	1.000000e+00	-5.653334e-09	-1.014220e-08	1.062752e-06	6.658081e-09	9.999994e-01	1.000000e+00	9.998995e-01	1.000000e+00	
80	6.783870e-10	0.000000e+00	1.000001e+00	9.999998e-01	2.632832e-06	9.999999e-01	4.970127e-09	1.265417e-08	-7.293779e-07	-6.830057e-09	1.000001e+00	9.999998e-01	9.998994e-01	9.999995e-01	
81	6.883870e-10	0.000000e+00	9.999987e-01	1.000000e+00	2.666992e-06	1.000000e+00	-2.988492e-09	-8.438289e-09	7.883642e-07	7.638913e-09	9.999994e-01	1.000000e+00	9.999034e-01	1.000000e+00	
82	6.983870e-10	0.000000e+00	1.000001e+00	9.999998e-01	2.620994e-06	9.999999e-01	2.345880e-09	9.493381e-09	-5.036791e-07	-7.766481e-09	1.000001e+00	9.999997e-01	9.999023e-01	9.999995e-01	
83	7.083870e-10	0.000000e+00	9.999987e-01	1.000000e+00	2.647943e-06	1.000000e+00	-1.051871e-09	-6.987397e-09	5.914581e-07	8.212534e-09	9.999995e-01	1.000000e+00	9.999055e-01	1.000000e+00	
84	7.183870e-10	0.000000e+00	1.000001e+00	9.999998e-01	2.615974e-06	9.999999e-01	5.156244e-10	7.344070e-09	-3.403684e-07	-8.273330e-09	1.000001e+00	9.999996e-01	9.999039e-01	9.999996e-01	
85	7.283870e-10	0.000000e+00	9.999987e-01	1.000000e+00	2.636678e-06	1.000000e+00	3.399952e-10	-5.816419e-09	4.499816e-07	8.490321e-09	9.999995e-01	1.000000e+00	9.999066e-01	1.000000e+00	
86	7.383870e-10	0.000000e+00	1.000001e+00	9.999998e-01	2.614254e-06	9.999999e-01	-7.586786e-10	5.857819e-09	-2.223065e-07	-8.486166e-09	1.000000e+00	9.999995e-01	9.999048e-01	9.999996e-01	
87	7.483870e-10	0.000000e+00	9.999987e-01	1.000000e+00	2.629847e-06	1.000000e+00	1.329030e-09	-4.900496e-09	3.482327e-07	8.557007e-09	9.999995e-01	1.000001e+00	9.999072e-01	1.000000e+00	
88	7.583870e-10	0.000000e+00	1.000001e+00	9.999999e-01	2.614050e-06	9.999999e-01	-1.641370e-09	4.815565e-09	-1.370070e-07	-8.498684e-09	1.000000e+00	9.999994e-01	9.999052e-01	9.999996e-01	
89	7.683870e-10	0.000000e+00	9.999987e-01	1.000000e+00	2.625588e-06	1.000000e+00	2.022670e-09	-4.198042e-09	2.749972e-07	8.475862e-09	9.999995e-01	1.000001e+00	9.999075e-01	1.000000e+00	
90	7.783870e-10	0.000000e+00	1.000001e+00	9.999999e-01	2.614478e-06	9.999999e-01	-2.247024e-09	4.076427e-09	-7.539962e-08	-8.376109e-09	1.000000e+00	9.999993e-01	9.999055e-01	9.999996e-01	
91	7.883870e-10	0.000000e+00	9.999987e-01	1.000000e+00	2.622849e-06	1.000000e+00	2.501068e-09	-3.666383e-09	2.222483e-07	8.293494e-09	9.999996e-01	1.000001e+00	9.999076e-01	1.000000e+00	
92	7.983870e-10	0.000000e+00	1.000001e+00	9.999999e-01	2.615116e-06	9.999999e-01	-2.656137e-09	3.547853e-09	-3.091006e-08	-8.164058e-09	1.000000e+00	9.999992e-01	9.999056e-01	9.999996e-01	
93	8.083870e-10	0.000000e+00	9.999987e-01	1.000000e+00	2.621030e-06	1.000000e+00	2.823432e-09	-3.267914e-09	1.842304e-07	8.043875e-09	9.999996e-01	1.000001e+00	9.999077e-01	1.000000e+00	
94	8.183870e-10	0.000000e+00	1.000001e+00	9.999999e-01	2.615772e-06	9.999999e-01	-2.925599e-09	3.167848e-09	1.219577e-09	-7.894517e-09	1.000000e+00	9.999991e-01	9.999057e-01	9.999996e-01	
95	8.283870e-10	0.000000e+00	9.999987e-01	1.000000e+00	2.619781e-06	1.000000e+00	3.033182e-09	-2.971804e-09	1.568118e-07	7.751544e-09	9.999996e-01	1.000001e+00	9.999077e-01	1.000000e+00	
96	8.383870e-10	0.000000e+00	1.000001e+00	9.999999e-01	2.616369e-06	9.999999e-01	-3.095800e-09	2.894170e-09	2.442868e-08	-7.589919e-09	1.000000e+00	9.999990e-01	9.999057e-01	9.999997e-01	
